#  HZ   S   DB   R     50.00 
! Rohde & Schwarz ZVA24 4Ports - Version 3.60 - 1145.1110k28 SN: 101513
! Date: 2019-08-26 13:16:34
! Measurement: S33 
! 
 5.500000000000000E9    -1.301650676112983E1   1.578804957479995E2  
 5.501250000000000E9    -1.302686544237971E1   1.576973790806071E2  
 5.502500000000000E9    -1.303556245608049E1   1.574850435590939E2  
 5.503750000000000E9    -1.304788928196388E1   1.572864862525122E2  
 5.505000000000000E9    -1.306197274963714E1   1.571176248245124E2  
 5.506250000000000E9    -1.307806351193469E1   1.569345796306796E2  
 5.507500000000000E9    -1.309711106145065E1   1.567654740918343E2  
 5.508750000000000E9    -1.311417739867180E1   1.566206806815141E2  
 5.510000000000000E9    -1.312773575275742E1   1.564796289627666E2  
 5.511250000000000E9    -1.314340954603357E1   1.563296014623001E2  
 5.512500000000000E9    -1.315534261627903E1   1.561749479747872E2  
 5.513750000000000E9    -1.316386450140682E1   1.559972064364790E2  
 5.515000000000000E9    -1.317302292247700E1   1.557689558193156E2  
 5.516250000000000E9    -1.318094562136808E1   1.555109198496396E2  
 5.517500000000000E9    -1.319151970132676E1   1.552258983778433E2  
 5.518750000000000E9    -1.320307938542169E1   1.549301831812170E2  
 5.520000000000000E9    -1.321567638969317E1   1.546156905285064E2  
 5.521250000000000E9    -1.322810770024768E1   1.542957044165344E2  
 5.522500000000000E9    -1.324395427806074E1   1.539571582178425E2  
 5.523750000000000E9    -1.325544830980184E1   1.536186907455881E2  
 5.525000000000000E9    -1.327009065715642E1   1.532912574797844E2  
 5.526250000000000E9    -1.328492889414965E1   1.529738121992862E2  
 5.527500000000000E9    -1.329438358792374E1   1.526518017962490E2  
 5.528750000000000E9    -1.330451982347578E1   1.523220834507148E2  
 5.530000000000000E9    -1.331695321027194E1   1.519834730247698E2  
 5.531250000000000E9    -1.333034215009483E1   1.516401052560635E2  
 5.532500000000000E9    -1.335287444836516E1   1.513151133823393E2  
 5.533750000000000E9    -1.337633136752124E1   1.510266833549110E2  
 5.535000000000000E9    -1.339985154178926E1   1.507772613040368E2  
 5.536250000000000E9    -1.342138693330743E1   1.505522292705311E2  
 5.537500000000000E9    -1.344003541294381E1   1.503205363282301E2  
 5.538750000000000E9    -1.346044771159343E1   1.500821677033418E2  
 5.540000000000000E9    -1.348092665406780E1   1.498132018376413E2  
 5.541250000000000E9    -1.350371247345479E1   1.495455554250450E2  
 5.542500000000000E9    -1.353003793935640E1   1.492693731491273E2  
 5.543750000000000E9    -1.355395241827019E1   1.489989801821240E2  
 5.545000000000000E9    -1.358231769820211E1   1.486996942068426E2  
 5.546250000000000E9    -1.360796429642879E1   1.483809894583032E2  
 5.547500000000000E9    -1.363432105147194E1   1.480575222492874E2  
 5.548750000000000E9    -1.366078204258817E1   1.477347158916292E2  
 5.550000000000000E9    -1.368603792364967E1   1.473878987187144E2  
 5.551250000000000E9    -1.370788666487850E1   1.470466590042616E2  
 5.552500000000000E9    -1.373044998240134E1   1.466761162102052E2  
 5.553750000000000E9    -1.375112862652299E1   1.462856528753506E2  
 5.555000000000000E9    -1.377120798084130E1   1.458686316727607E2  
 5.556250000000000E9    -1.379486053754898E1   1.454396429887756E2  
 5.557500000000000E9    -1.382175485259784E1   1.450054051119255E2  
 5.558750000000000E9    -1.384995171311868E1   1.445766358488262E2  
 5.560000000000000E9    -1.388457368029499E1   1.441493129951880E2  
 5.561250000000000E9    -1.392324692824655E1   1.437341068948097E2  
 5.562500000000000E9    -1.396676701039679E1   1.433196088032473E2  
 5.563750000000000E9    -1.401333317528987E1   1.429592095353354E2  
 5.565000000000000E9    -1.406667472484684E1   1.426013480999983E2  
 5.566250000000000E9    -1.412109254200884E1   1.422953419878593E2  
 5.567500000000000E9    -1.417802240695434E1   1.420051206338404E2  
 5.568750000000000E9    -1.423809804105126E1   1.417658027275731E2  
 5.570000000000000E9    -1.429326260424739E1   1.415659300823261E2  
 5.571250000000000E9    -1.434680972296023E1   1.413654189317402E2  
 5.572500000000000E9    -1.439832528167357E1   1.411703417977552E2  
 5.573750000000000E9    -1.444927736741726E1   1.409975438030987E2  
 5.575000000000000E9    -1.449486156217358E1   1.408213462256420E2  
 5.576250000000000E9    -1.453554891073590E1   1.406281154336837E2  
 5.577500000000000E9    -1.456564886816694E1   1.404118830272286E2  
 5.578750000000000E9    -1.459054609427115E1   1.401601822648308E2  
 5.580000000000000E9    -1.461140739006020E1   1.398464536509064E2  
 5.581250000000000E9    -1.463380540684276E1   1.394711462150831E2  
 5.582500000000000E9    -1.466026153428223E1   1.390734847686389E2  
 5.583750000000000E9    -1.468703837347707E1   1.386521090222418E2  
 5.585000000000000E9    -1.472103329388498E1   1.382141984234979E2  
 5.586250000000000E9    -1.475521955953760E1   1.377954823247754E2  
 5.587500000000000E9    -1.479241277540698E1   1.374136927105848E2  
 5.588750000000000E9    -1.483347211230234E1   1.370506020883130E2  
 5.590000000000000E9    -1.487198074941708E1   1.366848535726892E2  
 5.591250000000000E9    -1.491360035646975E1   1.363586284973932E2  
 5.592500000000000E9    -1.495583903391369E1   1.360175638176287E2  
 5.593750000000000E9    -1.500554281978529E1   1.356845689740992E2  
 5.595000000000000E9    -1.505770724111006E1   1.353669211438343E2  
 5.596250000000000E9    -1.511341379290461E1   1.350737761061863E2  
 5.597500000000000E9    -1.517177285072643E1   1.348091765064836E2  
 5.598750000000000E9    -1.523097009297233E1   1.345540772089124E2  
 5.600000000000000E9    -1.529022327081634E1   1.342781404348157E2  
 5.601250000000000E9    -1.534899109011878E1   1.340399025208979E2  
 5.602500000000000E9    -1.540867879068694E1   1.337831511880464E2  
 5.603750000000000E9    -1.546539749501856E1   1.335099019206774E2  
 5.605000000000000E9    -1.552206375662193E1   1.332186458495800E2  
 5.606250000000000E9    -1.557429861222827E1   1.328908040946028E2  
 5.607500000000000E9    -1.562671202678547E1   1.325328926984551E2  
 5.608750000000000E9    -1.568086298876522E1   1.321713756473105E2  
 5.610000000000000E9    -1.573713902260857E1   1.318380308794810E2  
 5.611250000000000E9    -1.578770950692679E1   1.314861640633204E2  
 5.612500000000000E9    -1.583561262894201E1   1.311913903096660E2  
 5.613750000000000E9    -1.587825757373640E1   1.308598546160657E2  
 5.615000000000000E9    -1.591445142109742E1   1.305400888783106E2  
 5.616250000000000E9    -1.594597103308312E1   1.302353292162287E2  
 5.617500000000000E9    -1.597306177254724E1   1.299033831873331E2  
 5.618750000000000E9    -1.599750173343571E1   1.295643308640570E2  
 5.620000000000000E9    -1.602065044464622E1   1.291615597807099E2  
 5.621250000000000E9    -1.604955824218515E1   1.287379764928433E2  
 5.622500000000000E9    -1.608552555027432E1   1.282939072730385E2  
 5.623750000000000E9    -1.613248105636177E1   1.278591473479051E2  
 5.625000000000000E9    -1.618772804984736E1   1.274512232274541E2  
 5.626250000000000E9    -1.624477882782206E1   1.270278211987070E2  
 5.627500000000000E9    -1.630604647614398E1   1.266412664407397E2  
 5.628750000000000E9    -1.637446252975726E1   1.262543317976500E2  
 5.630000000000000E9    -1.644646093315202E1   1.259138322135691E2  
 5.631250000000000E9    -1.651663127713056E1   1.255605625295065E2  
 5.632500000000000E9    -1.658946524455475E1   1.251957913436855E2  
 5.633750000000000E9    -1.666062273121452E1   1.248266316194634E2  
 5.635000000000000E9    -1.672860789375348E1   1.244613195185424E2  
 5.636250000000000E9    -1.679684890499292E1   1.240723870069305E2  
 5.637500000000000E9    -1.685998498259713E1   1.236322212776607E2  
 5.638750000000000E9    -1.692404137194168E1   1.231722959949505E2  
 5.640000000000000E9    -1.698782873996396E1   1.226941662287858E2  
 5.641250000000000E9    -1.705239734275726E1   1.221769148088402E2  
 5.642500000000000E9    -1.712074245209505E1   1.216376839386612E2  
 5.643750000000000E9    -1.719536367261177E1   1.211291062275710E2  
 5.645000000000000E9    -1.727686966020447E1   1.206681029054367E2  
 5.646250000000000E9    -1.735756013325433E1   1.202448835398565E2  
 5.647500000000000E9    -1.743628196398451E1   1.199221355428225E2  
 5.648750000000000E9    -1.751196190575409E1   1.196127483775379E2  
 5.650000000000000E9    -1.758462175417072E1   1.193535758633953E2  
 5.651250000000000E9    -1.765473452809739E1   1.191272522832290E2  
 5.652500000000000E9    -1.772701564139262E1   1.189097400168349E2  
 5.653750000000000E9    -1.779341620091813E1   1.187331921357921E2  
 5.655000000000000E9    -1.785765918685452E1   1.185700730722899E2  
 5.656250000000000E9    -1.791772049234442E1   1.184294241500679E2  
 5.657500000000000E9    -1.797866669185306E1   1.182489547083887E2  
 5.658750000000000E9    -1.803682096007717E1   1.180296956872194E2  
 5.660000000000000E9    -1.809495366946432E1   1.178112213066186E2  
 5.661250000000000E9    -1.815307248012830E1   1.175381393853491E2  
 5.662500000000000E9    -1.821024923416459E1   1.172348078370230E2  
 5.663750000000000E9    -1.826986994618193E1   1.169436969224556E2  
 5.665000000000000E9    -1.832634138586628E1   1.166351640269370E2  
 5.666250000000000E9    -1.837301653695426E1   1.163130555358260E2  
 5.667500000000000E9    -1.841677925185106E1   1.159501577883969E2  
 5.668750000000000E9    -1.845095355883284E1   1.155505452434037E2  
 5.670000000000000E9    -1.847981858078816E1   1.150849186934165E2  
 5.671250000000000E9    -1.850417679111009E1   1.146202435861841E2  
 5.672500000000000E9    -1.852884935388963E1   1.141491517820485E2  
 5.673750000000000E9    -1.855627653296120E1   1.136419691027298E2  
 5.675000000000000E9    -1.857958569384980E1   1.131744943793120E2  
 5.676250000000000E9    -1.859631702522840E1   1.127144781879560E2  
 5.677500000000000E9    -1.861498232532767E1   1.122474662531750E2  
 5.678750000000000E9    -1.863310491313272E1   1.117786057676686E2  
 5.680000000000000E9    -1.864758479777595E1   1.112595730643981E2  
 5.681250000000000E9    -1.866942513744736E1   1.106951507497461E2  
 5.682500000000000E9    -1.869765020739867E1   1.100556972495556E2  
 5.683750000000000E9    -1.873576561151381E1   1.093820852605373E2  
 5.685000000000000E9    -1.878912991538692E1   1.086908203374301E2  
 5.686250000000000E9    -1.885895591240286E1   1.079764083116568E2  
 5.687500000000000E9    -1.893968146325514E1   1.072688562946277E2  
 5.688750000000000E9    -1.902722208548995E1   1.065374193899750E2  
 5.690000000000000E9    -1.912451104678332E1   1.058545938217950E2  
 5.691250000000000E9    -1.922937422242762E1   1.051824984655947E2  
 5.692500000000000E9    -1.933653201002762E1   1.045282411836187E2  
 5.693750000000000E9    -1.944063354033198E1   1.038612885979430E2  
 5.695000000000000E9    -1.954640663154192E1   1.032451368379139E2  
 5.696250000000000E9    -1.964280024541663E1   1.026050598168382E2  
 5.697500000000000E9    -1.973423103876969E1   1.019562281648454E2  
 5.698750000000000E9    -1.981767806745969E1   1.013283922036577E2  
 5.700000000000000E9    -1.989324672123872E1   1.006813834692856E2  
 5.701250000000000E9    -1.996610985436832E1   1.000840455136219E2  
 5.702500000000000E9    -2.002906137718287E1   9.944504343203259E1  
 5.703750000000000E9    -2.009167581305247E1   9.886195194568465E1  
 5.705000000000000E9    -2.015120487012875E1   9.830660934223111E1  
 5.706250000000000E9    -2.020614175650491E1   9.775140141707340E1  
 5.707500000000000E9    -2.025870419962200E1   9.723325038454102E1  
 5.708750000000000E9    -2.032331505605135E1   9.673303741284536E1  
 5.710000000000000E9    -2.038370879482833E1   9.624958230128274E1  
 5.711250000000000E9    -2.045052031803104E1   9.580838262904111E1  
 5.712500000000000E9    -2.052164377457553E1   9.542991252889595E1  
 5.713750000000000E9    -2.059337105298646E1   9.507888883149728E1  
 5.715000000000000E9    -2.066572271577294E1   9.474794665542160E1  
 5.716250000000000E9    -2.073309278006589E1   9.441887068825902E1  
 5.717500000000000E9    -2.078742831519623E1   9.409108755637661E1  
 5.718750000000000E9    -2.083384914015578E1   9.371671803537852E1  
 5.720000000000000E9    -2.087324606315236E1   9.326052059795062E1  
 5.721250000000000E9    -2.091097756561292E1   9.268597563632056E1  
 5.722500000000000E9    -2.094978957641879E1   9.202658753926208E1  
 5.723750000000000E9    -2.098107936232170E1   9.130142159841932E1  
 5.725000000000000E9    -2.100855362053412E1   9.051747168868832E1  
 5.726250000000000E9    -2.103640583125907E1   8.966256575869410E1  
 5.727500000000000E9    -2.106322768466294E1   8.874143491189476E1  
 5.728750000000000E9    -2.108305520245594E1   8.779392694350905E1  
 5.730000000000000E9    -2.110133167251422E1   8.683847588361743E1  
 5.731250000000000E9    -2.111366569495132E1   8.586985529451629E1  
 5.732500000000000E9    -2.112021798900330E1   8.486146995237124E1  
 5.733750000000000E9    -2.112620559807590E1   8.389579393352102E1  
 5.735000000000000E9    -2.112796111912534E1   8.289113145081558E1  
 5.736250000000000E9    -2.113505338738356E1   8.184046176424391E1  
 5.737500000000000E9    -2.115491993532891E1   8.082650803691283E1  
 5.738750000000000E9    -2.118068913491931E1   7.979000172018043E1  
 5.740000000000000E9    -2.121079696962361E1   7.874708892359790E1  
 5.741250000000000E9    -2.125344704594075E1   7.774363330139752E1  
 5.742500000000000E9    -2.129904203486559E1   7.674759443086008E1  
 5.743750000000000E9    -2.136170435667648E1   7.571521268467501E1  
 5.745000000000000E9    -2.142936281784144E1   7.466634858478602E1  
 5.746250000000000E9    -2.149842432606994E1   7.363386452623821E1  
 5.747500000000000E9    -2.157262195757266E1   7.265810693064896E1  
 5.748750000000000E9    -2.165518022014154E1   7.159709327762600E1  
 5.750000000000000E9    -2.173684063013888E1   7.053994353407789E1  
 5.751250000000000E9    -2.180636345268219E1   6.949027681058132E1  
 5.752500000000000E9    -2.188242933128773E1   6.842541605955114E1  
 5.753750000000000E9    -2.195746882570905E1   6.732159859264090E1  
 5.755000000000000E9    -2.202301526490078E1   6.624657460320809E1  
 5.756250000000000E9    -2.207966841633282E1   6.523264810422919E1  
 5.757500000000000E9    -2.212054386473952E1   6.424175786457408E1  
 5.758750000000000E9    -2.215053562411405E1   6.331223480610390E1  
 5.760000000000000E9    -2.216188554648499E1   6.241027256899862E1  
 5.761250000000000E9    -2.215594626677441E1   6.148080781357258E1  
 5.762500000000000E9    -2.213796652203337E1   6.059201843097859E1  
 5.763750000000000E9    -2.211645235179548E1   5.960886057852162E1  
 5.765000000000000E9    -2.209499562390286E1   5.861751036483165E1  
 5.766250000000000E9    -2.207872905431601E1   5.760721467765795E1  
 5.767500000000000E9    -2.206856873049471E1   5.657437532747358E1  
 5.768750000000000E9    -2.206860569755437E1   5.556481908046361E1  
 5.770000000000000E9    -2.207407250464419E1   5.453278768966643E1  
 5.771250000000000E9    -2.209256880240150E1   5.348668608409511E1  
 5.772500000000000E9    -2.211214086472236E1   5.240942671465579E1  
 5.773750000000000E9    -2.213518541470423E1   5.125784932185010E1  
 5.775000000000000E9    -2.217167373704850E1   5.008034612251763E1  
 5.776250000000000E9    -2.221746477772316E1   4.887454418611804E1  
 5.777500000000000E9    -2.227188921132157E1   4.761079315195797E1  
 5.778750000000000E9    -2.233503239631425E1   4.637516749098887E1  
 5.780000000000000E9    -2.240390234969288E1   4.517987609540256E1  
 5.781250000000000E9    -2.245717939547702E1   4.406172179161152E1  
 5.782500000000000E9    -2.251011379858306E1   4.297336337597599E1  
 5.783750000000000E9    -2.253671488220116E1   4.195197562515804E1  
 5.785000000000000E9    -2.254910098767491E1   4.094474176906448E1  
 5.786250000000000E9    -2.254459746289217E1   3.998871533191092E1  
 5.787500000000000E9    -2.252460996730302E1   3.903700792612993E1  
 5.788750000000000E9    -2.248988579624035E1   3.814752146613345E1  
 5.790000000000000E9    -2.243955210707956E1   3.726945125139642E1  
 5.791250000000000E9    -2.238106487009718E1   3.636605521598644E1  
 5.792500000000000E9    -2.231149090754921E1   3.548027401750191E1  
 5.793750000000000E9    -2.224040156707707E1   3.457849413952531E1  
 5.795000000000000E9    -2.217049140530948E1   3.364935985526828E1  
 5.796250000000000E9    -2.210088380478317E1   3.271842990538129E1  
 5.797500000000000E9    -2.204271566935474E1   3.175889187008334E1  
 5.798750000000000E9    -2.199660080733002E1   3.079377508745705E1  
 5.800000000000000E9    -2.196551045233536E1   2.974761475529256E1  
 5.801250000000000E9    -2.193056201577289E1   2.870994753127218E1  
 5.802500000000000E9    -2.191026554296895E1   2.766124069458799E1  
 5.803750000000000E9    -2.189480680290279E1   2.660933993875497E1  
 5.805000000000000E9    -2.188618633787517E1   2.553644846971887E1  
 5.806250000000000E9    -2.187329124859504E1   2.445003353650856E1  
 5.807500000000000E9    -2.186363916551542E1   2.336862772429897E1  
 5.808750000000000E9    -2.184956255905981E1   2.232323245148261E1  
 5.810000000000000E9    -2.183515739153333E1   2.125234329675122E1  
 5.811250000000000E9    -2.181219004017815E1   2.018866920033657E1  
 5.812500000000000E9    -2.177979161535647E1   1.914289009365188E1  
 5.813750000000000E9    -2.173601153649024E1   1.812368313160048E1  
 5.815000000000000E9    -2.169686582083708E1   1.691954881343030E1  
 5.816250000000000E9    -2.163707215947706E1   1.596275285895088E1  
 5.817500000000000E9    -2.157655917220412E1   1.502171070343223E1  
 5.818750000000000E9    -2.151429049376789E1   1.410655648492207E1  
 5.820000000000000E9    -2.145795426431332E1   1.323562466135986E1  
 5.821250000000000E9    -2.139298891575472E1   1.242727947832193E1  
 5.822500000000000E9    -2.133655074835962E1   1.161829772226015E1  
 5.823750000000000E9    -2.128904815038331E1   1.088538369785574E1  
 5.825000000000000E9    -2.124287183698031E1   1.017644013894706E1  
 5.826250000000000E9    -2.119575433751242E1   9.501390076918590  
 5.827500000000000E9    -2.116080735957261E1   8.820382336880700  
 5.828750000000000E9    -2.112093218019010E1   8.089125507617336  
 5.830000000000000E9    -2.109168117442541E1   7.369754230711052  
 5.831250000000000E9    -2.105954850655439E1   6.594824332484846  
 5.832500000000000E9    -2.103363686846643E1   5.815847128087170  
 5.833750000000000E9    -2.101898969684776E1   4.979159425456690  
 5.835000000000000E9    -2.099241311424595E1   4.188290187102298  
 5.836250000000000E9    -2.097701827030549E1   3.357493193206174  
 5.837500000000000E9    -2.094937875274294E1   2.543037343718782  
 5.838750000000000E9    -2.092417570740562E1   1.712502407658397  
 5.840000000000000E9    -2.088752465634123E1   9.259394141179155E-1  
 5.841250000000000E9    -2.084501109197656E1   1.122495578466552E-1  
 5.842500000000000E9    -2.079731353545621E1  -6.191109996081864E-1  
 5.843750000000000E9    -2.075047332323713E1  -1.345095769666302  
 5.845000000000000E9    -2.069605191705575E1  -2.027924890634647  
 5.846250000000000E9    -2.063909670168101E1  -2.667184572894445  
 5.847500000000000E9    -2.058069246861004E1  -3.244110925759358  
 5.848750000000000E9    -2.052545412791634E1  -3.758335618545369  
 5.850000000000000E9    -2.046658221696751E1  -4.222755340554018  
 5.851250000000000E9    -2.040908071305766E1  -4.639223518734273  
 5.852500000000000E9    -2.035235772929496E1  -4.989916559764504  
 5.853750000000000E9    -2.029505396024747E1  -5.334181745382904  
 5.855000000000000E9    -2.024332199272908E1  -5.648941951715241  
 5.856250000000000E9    -2.019141006273347E1  -5.960013954796137  
 5.857500000000000E9    -2.014491947139070E1  -6.279907070910015  
 5.858750000000000E9    -2.010291118760985E1  -6.611611480123019  
