#  HZ   S   DB   R     50.00 
! Rohde & Schwarz ZVA24 4Ports - Version 3.60 - 1145.1110k28 SN: 101513
! Date: 2019-08-26 13:05:17
! Measurement: S33 
! 
 5.500000000000000E9    -1.511543272307454E1   1.423097105612740E2  
 5.501250000000000E9    -1.512115840594298E1   1.419067463114498E2  
 5.502500000000000E9    -1.513110741331482E1   1.414820751402266E2  
 5.503750000000000E9    -1.515133425428344E1   1.410508411694236E2  
 5.505000000000000E9    -1.517234555892586E1   1.406719741512989E2  
 5.506250000000000E9    -1.519754581238719E1   1.402733202568603E2  
 5.507500000000000E9    -1.522714572581062E1   1.398728521073535E2  
 5.508750000000000E9    -1.525181487806661E1   1.394943269049888E2  
 5.510000000000000E9    -1.528037983896469E1   1.390945342008411E2  
 5.511250000000000E9    -1.531446234326676E1   1.386764667701198E2  
 5.512500000000000E9    -1.535421807268376E1   1.382604450882669E2  
 5.513750000000000E9    -1.539554717148748E1   1.378617058763191E2  
 5.515000000000000E9    -1.544265725819606E1   1.374654214506653E2  
 5.516250000000000E9    -1.549121061381198E1   1.370812845758902E2  
 5.517500000000000E9    -1.554385760927959E1   1.367197418794993E2  
 5.518750000000000E9    -1.559112557626775E1   1.364090009283372E2  
 5.520000000000000E9    -1.564143077317037E1   1.361193177007978E2  
 5.521250000000000E9    -1.568626478793735E1   1.358547822337386E2  
 5.522500000000000E9    -1.572983655353183E1   1.356000630910615E2  
 5.523750000000000E9    -1.576665921520687E1   1.353705850298148E2  
 5.525000000000000E9    -1.580329098414882E1   1.351629745591587E2  
 5.526250000000000E9    -1.583445094488130E1   1.349860339562972E2  
 5.527500000000000E9    -1.585417317041330E1   1.348032888856280E2  
 5.528750000000000E9    -1.586846730519172E1   1.346114466329089E2  
 5.530000000000000E9    -1.587930145832801E1   1.343800204667232E2  
 5.531250000000000E9    -1.588408076114611E1   1.341338126262655E2  
 5.532500000000000E9    -1.589059011150460E1   1.338654335623113E2  
 5.533750000000000E9    -1.589765188998882E1   1.335699790213801E2  
 5.535000000000000E9    -1.590525106010184E1   1.332690614582922E2  
 5.536250000000000E9    -1.591039328671614E1   1.329395633621062E2  
 5.537500000000000E9    -1.591446397754849E1   1.325633526351581E2  
 5.538750000000000E9    -1.592281401754588E1   1.321636352968752E2  
 5.540000000000000E9    -1.593576048388951E1   1.317236659644130E2  
 5.541250000000000E9    -1.595232994412909E1   1.312635725733313E2  
 5.542500000000000E9    -1.597307478610845E1   1.307857671823448E2  
 5.543750000000000E9    -1.599653774389146E1   1.302964242525107E2  
 5.545000000000000E9    -1.602620885673363E1   1.297686549484093E2  
 5.546250000000000E9    -1.605709368737564E1   1.292198115453470E2  
 5.547500000000000E9    -1.609295201118002E1   1.286790682878789E2  
 5.548750000000000E9    -1.613126282223495E1   1.281249591804129E2  
 5.550000000000000E9    -1.617354325747118E1   1.275661210083291E2  
 5.551250000000000E9    -1.621684262683158E1   1.269973234259191E2  
 5.552500000000000E9    -1.626702748617318E1   1.264181299062007E2  
 5.553750000000000E9    -1.632060549071888E1   1.258660373471669E2  
 5.555000000000000E9    -1.638067797664223E1   1.253144946298642E2  
 5.556250000000000E9    -1.644264121105947E1   1.247968864633395E2  
 5.557500000000000E9    -1.650894651157948E1   1.243128693511765E2  
 5.558750000000000E9    -1.657921563402801E1   1.238827299399105E2  
 5.560000000000000E9    -1.664685136499911E1   1.234951070966226E2  
 5.561250000000000E9    -1.671570070306038E1   1.231471352672236E2  
 5.562500000000000E9    -1.678122177208595E1   1.228347976904138E2  
 5.563750000000000E9    -1.684256225967375E1   1.225737179030884E2  
 5.565000000000000E9    -1.690512593983163E1   1.222907335282768E2  
 5.566250000000000E9    -1.695751077984117E1   1.220504767868062E2  
 5.567500000000000E9    -1.700947785401617E1   1.217896665177951E2  
 5.568750000000000E9    -1.706211638041528E1   1.215318122759170E2  
 5.570000000000000E9    -1.710920594799900E1   1.212751168226074E2  
 5.571250000000000E9    -1.715821831534883E1   1.209871219804828E2  
 5.572500000000000E9    -1.720500154171974E1   1.206760623781781E2  
 5.573750000000000E9    -1.725504124621538E1   1.203946740128083E2  
 5.575000000000000E9    -1.729869986357417E1   1.201099727161528E2  
 5.576250000000000E9    -1.734015068419832E1   1.197950440614781E2  
 5.577500000000000E9    -1.737356147177236E1   1.194674009023653E2  
 5.578750000000000E9    -1.740771676672688E1   1.191044411897769E2  
 5.580000000000000E9    -1.744521940776380E1   1.187154824223536E2  
 5.581250000000000E9    -1.748567220736579E1   1.183132807323808E2  
 5.582500000000000E9    -1.752539446955538E1   1.179553878346859E2  
 5.583750000000000E9    -1.756409639099349E1   1.176037397427541E2  
 5.585000000000000E9    -1.759786577122301E1   1.172078440520414E2  
 5.586250000000000E9    -1.763046316814893E1   1.168350493480972E2  
 5.587500000000000E9    -1.766242620026262E1   1.164821958412580E2  
 5.588750000000000E9    -1.769606714642285E1   1.160696023015201E2  
 5.590000000000000E9    -1.773163782629938E1   1.156471002475384E2  
 5.591250000000000E9    -1.777070499258327E1   1.152482738332153E2  
 5.592500000000000E9    -1.781416347179040E1   1.148454304218222E2  
 5.593750000000000E9    -1.785782024578876E1   1.144554624214238E2  
 5.595000000000000E9    -1.790372006138514E1   1.140750327345608E2  
 5.596250000000000E9    -1.793978158519408E1   1.136945541572221E2  
 5.597500000000000E9    -1.797908365029274E1   1.132983626591498E2  
 5.598750000000000E9    -1.801801681721338E1   1.128667402717493E2  
 5.600000000000000E9    -1.805824345771996E1   1.123899972923372E2  
 5.601250000000000E9    -1.810174516355960E1   1.119041387633068E2  
 5.602500000000000E9    -1.815083613498501E1   1.113761411017039E2  
 5.603750000000000E9    -1.820177431714073E1   1.108239636016348E2  
 5.605000000000000E9    -1.825665244912550E1   1.102891683746531E2  
 5.606250000000000E9    -1.831202498045555E1   1.097464830931829E2  
 5.607500000000000E9    -1.836505901831733E1   1.091965252337608E2  
 5.608750000000000E9    -1.842209790000653E1   1.086462109178129E2  
 5.610000000000000E9    -1.847707800533139E1   1.081289635433534E2  
 5.611250000000000E9    -1.852473977845227E1   1.075759413049144E2  
 5.612500000000000E9    -1.857675203316702E1   1.070460591997750E2  
 5.613750000000000E9    -1.862606287552250E1   1.064764422480264E2  
 5.615000000000000E9    -1.867734308683306E1   1.059016357028523E2  
 5.616250000000000E9    -1.873568039830828E1   1.053580864674205E2  
 5.617500000000000E9    -1.879238906391857E1   1.048152730238638E2  
 5.618750000000000E9    -1.885242018196565E1   1.043348821253929E2  
 5.620000000000000E9    -1.891308467735781E1   1.038238485804156E2  
 5.621250000000000E9    -1.897770462395524E1   1.033273981749155E2  
 5.622500000000000E9    -1.904276200284155E1   1.028389265106973E2  
 5.623750000000000E9    -1.911507625531713E1   1.024152929246114E2  
 5.625000000000000E9    -1.918940259784716E1   1.020153672934718E2  
 5.626250000000000E9    -1.926449858588020E1   1.016183201483560E2  
 5.627500000000000E9    -1.933809313403947E1   1.012651279111497E2  
 5.628750000000000E9    -1.940351769309531E1   1.009669961277941E2  
 5.630000000000000E9    -1.947036444082457E1   1.006890345315832E2  
 5.631250000000000E9    -1.952643382334258E1   1.004238221332740E2  
 5.632500000000000E9    -1.957245478100849E1   1.000858323524239E2  
 5.633750000000000E9    -1.961723091570787E1   9.969479940577682E1  
 5.635000000000000E9    -1.966062688991300E1   9.928239975781469E1  
 5.636250000000000E9    -1.970435180695731E1   9.882174970748909E1  
 5.637500000000000E9    -1.974588354435982E1   9.831674637210932E1  
 5.638750000000000E9    -1.979805887561542E1   9.780357769639123E1  
 5.640000000000000E9    -1.984890965402034E1   9.730828125764667E1  
 5.641250000000000E9    -1.990184407811453E1   9.682650719784358E1  
 5.642500000000000E9    -1.995110735276598E1   9.640361320150123E1  
 5.643750000000000E9    -1.999504212917062E1   9.598648391391154E1  
 5.645000000000000E9    -2.003119868655904E1   9.561266409942029E1  
 5.646250000000000E9    -2.005834451874739E1   9.521741367007778E1  
 5.647500000000000E9    -2.007891413731620E1   9.482068014225268E1  
 5.648750000000000E9    -2.009951072496180E1   9.435142757187228E1  
 5.650000000000000E9    -2.011607021709349E1   9.388714004492542E1  
 5.651250000000000E9    -2.013968247007359E1   9.338780429765437E1  
 5.652500000000000E9    -2.016156231613684E1   9.286542923242696E1  
 5.653750000000000E9    -2.018550405396954E1   9.235358763280219E1  
 5.655000000000000E9    -2.021453893489604E1   9.180644183891576E1  
 5.656250000000000E9    -2.024120327356719E1   9.124982693057089E1  
 5.657500000000000E9    -2.026657962061930E1   9.070658578370261E1  
 5.658750000000000E9    -2.029211012111611E1   9.010455696181228E1  
 5.660000000000000E9    -2.032388231467443E1   8.953471723589077E1  
 5.661250000000000E9    -2.035624654941172E1   8.894061420581646E1  
 5.662500000000000E9    -2.038319896265134E1   8.835034959716327E1  
 5.663750000000000E9    -2.040578251425133E1   8.773855055899210E1  
 5.665000000000000E9    -2.042483114617451E1   8.707198462981059E1  
 5.666250000000000E9    -2.044375109256218E1   8.637482946887405E1  
 5.667500000000000E9    -2.046282460069379E1   8.562657219929128E1  
 5.668750000000000E9    -2.048387763072061E1   8.485168957231632E1  
 5.670000000000000E9    -2.051626664547203E1   8.408019362621388E1  
 5.671250000000000E9    -2.054432077263612E1   8.330880661548152E1  
 5.672500000000000E9    -2.057413075657694E1   8.256529969718834E1  
 5.673750000000000E9    -2.061111635093990E1   8.181828686338503E1  
 5.675000000000000E9    -2.064731852164065E1   8.110862006955391E1  
 5.676250000000000E9    -2.068676912454741E1   8.042729119501816E1  
 5.677500000000000E9    -2.072806163014565E1   7.970429568572104E1  
 5.678750000000000E9    -2.077307135599417E1   7.897906974288244E1  
 5.680000000000000E9    -2.082495060149088E1   7.827305022748661E1  
 5.681250000000000E9    -2.088642112273578E1   7.756523972614026E1  
 5.682500000000000E9    -2.095944094707389E1   7.688208926445726E1  
 5.683750000000000E9    -2.103702820308326E1   7.629484946902817E1  
 5.685000000000000E9    -2.111146113206076E1   7.577674046040167E1  
 5.686250000000000E9    -2.118019345647014E1   7.528584272197959E1  
 5.687500000000000E9    -2.123618726297751E1   7.484994484722435E1  
 5.688750000000000E9    -2.129326996870732E1   7.438149120195719E1  
 5.690000000000000E9    -2.134533908169563E1   7.392581336829761E1  
 5.691250000000000E9    -2.138870124481033E1   7.346568636706286E1  
 5.692500000000000E9    -2.142244082993317E1   7.299594000886356E1  
 5.693750000000000E9    -2.144403488525863E1   7.253330658700489E1  
 5.695000000000000E9    -2.146357260172084E1   7.198387266609315E1  
 5.696250000000000E9    -2.147084721239053E1   7.144229357476833E1  
 5.697500000000000E9    -2.146742698746336E1   7.084786620106345E1  
 5.698750000000000E9    -2.146501711588726E1   7.020743514454452E1  
 5.700000000000000E9    -2.145636771684661E1   6.956900611265787E1  
 5.701250000000000E9    -2.145127858435387E1   6.892946194831438E1  
 5.702500000000000E9    -2.143999719942982E1   6.828159817195365E1  
 5.703750000000000E9    -2.142626542696366E1   6.763216828601615E1  
 5.705000000000000E9    -2.141626805144401E1   6.699455336670410E1  
 5.706250000000000E9    -2.140198784596014E1   6.631539845773672E1  
 5.707500000000000E9    -2.139241808986147E1   6.567878274698781E1  
 5.708750000000000E9    -2.139013724922965E1   6.504959703111135E1  
 5.710000000000000E9    -2.137907343105222E1   6.446133021433164E1  
 5.711250000000000E9    -2.137318481917635E1   6.384785988987993E1  
 5.712500000000000E9    -2.136303838935834E1   6.325587579547158E1  
 5.713750000000000E9    -2.134564444228692E1   6.263292192699817E1  
 5.715000000000000E9    -2.132587441164149E1   6.197466385236153E1  
 5.716250000000000E9    -2.129516980469478E1   6.123751734881662E1  
 5.717500000000000E9    -2.127636764536298E1   6.048113429993817E1  
 5.718750000000000E9    -2.125703526285857E1   5.960942844645018E1  
 5.720000000000000E9    -2.123721832733122E1   5.873860426094058E1  
 5.721250000000000E9    -2.122275985501639E1   5.781096061751438E1  
 5.722500000000000E9    -2.120911641494972E1   5.686092333158767E1  
 5.723750000000000E9    -2.120067088810041E1   5.588650730752945E1  
 5.725000000000000E9    -2.119380468474689E1   5.488436087451736E1  
 5.726250000000000E9    -2.119628876659647E1   5.389360904926440E1  
 5.727500000000000E9    -2.119861057797499E1   5.291457446400379E1  
 5.728750000000000E9    -2.119930740041495E1   5.198568068995137E1  
 5.730000000000000E9    -2.120227909784048E1   5.109399942842183E1  
 5.731250000000000E9    -2.120354702388877E1   5.028015516617971E1  
 5.732500000000000E9    -2.119523293832306E1   4.947694037548469E1  
 5.733750000000000E9    -2.118691451802037E1   4.868600493167937E1  
 5.735000000000000E9    -2.117509538926964E1   4.788828497901359E1  
 5.736250000000000E9    -2.116501640287807E1   4.703917403249803E1  
 5.737500000000000E9    -2.117116260114566E1   4.620828846588426E1  
 5.738750000000000E9    -2.117666674638323E1   4.543058347375596E1  
 5.740000000000000E9    -2.118877043221612E1   4.470021402738036E1  
 5.741250000000000E9    -2.120201309332848E1   4.399634388171692E1  
 5.742500000000000E9    -2.121098489945642E1   4.333490350091849E1  
 5.743750000000000E9    -2.122157020337237E1   4.269803520192589E1  
 5.745000000000000E9    -2.123195945017289E1   4.207658408204384E1  
 5.746250000000000E9    -2.123575087065149E1   4.147397509890865E1  
 5.747500000000000E9    -2.123337815367282E1   4.089924620867706E1  
 5.748750000000000E9    -2.122116446151171E1   4.028182807545704E1  
 5.750000000000000E9    -2.120994694718045E1   3.968946576589982E1  
 5.751250000000000E9    -2.119033998872316E1   3.911801984831683E1  
 5.752500000000000E9    -2.117157877705345E1   3.847416688703780E1  
 5.753750000000000E9    -2.114232991636955E1   3.783845300899032E1  
 5.755000000000000E9    -2.110759476759239E1   3.720308292721035E1  
 5.756250000000000E9    -2.106466930978953E1   3.657898369381473E1  
 5.757500000000000E9    -2.101485428947606E1   3.595301110642422E1  
 5.758750000000000E9    -2.096528846038947E1   3.529820688540343E1  
 5.760000000000000E9    -2.091251159903476E1   3.462191330615694E1  
 5.761250000000000E9    -2.085566862286743E1   3.392246927258582E1  
 5.762500000000000E9    -2.080275583026128E1   3.326319216936849E1  
 5.763750000000000E9    -2.075737876171871E1   3.257234632813553E1  
 5.765000000000000E9    -2.074320570223998E1   3.172359001258265E1  
 5.766250000000000E9    -2.070179676737256E1   3.109528549651516E1  
 5.767500000000000E9    -2.066248274564133E1   3.046259252215545E1  
 5.768750000000000E9    -2.062419366550176E1   2.982155297052435E1  
 5.770000000000000E9    -2.059635901062206E1   2.915928779504183E1  
 5.771250000000000E9    -2.056889683456627E1   2.848950246268594E1  
 5.772500000000000E9    -2.054033531076803E1   2.784764677221273E1  
 5.773750000000000E9    -2.052266795979708E1   2.720825906782927E1  
 5.775000000000000E9    -2.050052889181431E1   2.659313339273692E1  
 5.776250000000000E9    -2.048343634491263E1   2.603257881588676E1  
 5.777500000000000E9    -2.046133072557637E1   2.551114018434539E1  
 5.778750000000000E9    -2.043338466249518E1   2.501589506925442E1  
 5.780000000000000E9    -2.039422363231311E1   2.456358407511956E1  
 5.781250000000000E9    -2.033864418804756E1   2.409074110633143E1  
 5.782500000000000E9    -2.027053778150715E1   2.353979506477520E1  
 5.783750000000000E9    -2.019815349277846E1   2.296902122288390E1  
 5.785000000000000E9    -2.012281241584500E1   2.236426420336017E1  
 5.786250000000000E9    -2.004044083665264E1   2.172219072480033E1  
 5.787500000000000E9    -1.996463634927007E1   2.103119252457084E1  
 5.788750000000000E9    -1.988568322265726E1   2.035690419204608E1  
 5.790000000000000E9    -1.981541781982170E1   1.965923219181520E1  
 5.791250000000000E9    -1.974643215622703E1   1.898305479505158E1  
 5.792500000000000E9    -1.968019514630259E1   1.831075014320665E1  
 5.793750000000000E9    -1.961503767440102E1   1.764145895442512E1  
 5.795000000000000E9    -1.955495983325598E1   1.699859757425102E1  
 5.796250000000000E9    -1.949615735803203E1   1.637617262059670E1  
 5.797500000000000E9    -1.944114132832440E1   1.577171106864844E1  
 5.798750000000000E9    -1.939370638834648E1   1.513706518452181E1  
 5.800000000000000E9    -1.934411543254608E1   1.452635424515013E1  
 5.801250000000000E9    -1.929420697299435E1   1.389986202187514E1  
 5.802500000000000E9    -1.925247332737261E1   1.327718307584099E1  
 5.803750000000000E9    -1.921577890342602E1   1.266336814588228E1  
 5.805000000000000E9    -1.918134526214726E1   1.205525935807797E1  
 5.806250000000000E9    -1.914835916772336E1   1.153275097788239E1  
 5.807500000000000E9    -1.911505849207670E1   1.100951950042894E1  
 5.808750000000000E9    -1.907209650405386E1   1.052929123772196E1  
 5.810000000000000E9    -1.902896451757599E1   1.002396603275105E1  
 5.811250000000000E9    -1.898133521562019E1   9.521170050126486  
 5.812500000000000E9    -1.892982823703384E1   9.047170129843577  
 5.813750000000000E9    -1.887230314081662E1   8.572416744906498  
 5.815000000000000E9    -1.880854352171417E1   8.092177133311724  
 5.816250000000000E9    -1.874370197777489E1   7.584699367652408  
 5.817500000000000E9    -1.867689076119115E1   7.107338603599854  
 5.818750000000000E9    -1.860704106671283E1   6.568274801664081  
 5.820000000000000E9    -1.854867128270984E1   6.055094820750678  
 5.821250000000000E9    -1.848234366186279E1   5.560910579394556  
 5.822500000000000E9    -1.842844179864948E1   5.055571724458222  
 5.823750000000000E9    -1.837389949868011E1   4.563351293334810  
 5.825000000000000E9    -1.832049484580709E1   4.065957329497060  
 5.826250000000000E9    -1.827038914630075E1   3.581193810952087  
 5.827500000000000E9    -1.823384302401558E1   3.102924051806412  
 5.828750000000000E9    -1.819314399399254E1   2.667303311382489  
 5.830000000000000E9    -1.815378912740862E1   2.289587253927021  
 5.831250000000000E9    -1.811134874904138E1   1.889693171289507  
 5.832500000000000E9    -1.806494687338839E1   1.537408738669853  
 5.833750000000000E9    -1.801614099470441E1   1.147488146616311  
 5.835000000000000E9    -1.796087928721624E1   7.651763045006352E-1  
 5.836250000000000E9    -1.790679759353229E1   3.449274336317900E-1  
 5.837500000000000E9    -1.784841726686226E1  -1.051252609317527E-1  
 5.838750000000000E9    -1.779441942561092E1  -5.596465612941327E-1  
 5.840000000000000E9    -1.774059593263876E1  -1.001783399889987  
 5.841250000000000E9    -1.768542981772686E1  -1.433480508592896  
 5.842500000000000E9    -1.762851959889943E1  -1.814494743554727  
 5.843750000000000E9    -1.757167023536995E1  -2.182517763277760  
 5.845000000000000E9    -1.750951812433271E1  -2.524915383549571  
 5.846250000000000E9    -1.744158487987662E1  -2.863326677391936  
 5.847500000000000E9    -1.736835366654940E1  -3.200774737872283  
 5.848750000000000E9    -1.729627753760678E1  -3.536670835998421  
 5.850000000000000E9    -1.722259784087884E1  -3.880648200758702  
 5.851250000000000E9    -1.715010175656324E1  -4.238969671286680  
 5.852500000000000E9    -1.708042205393569E1  -4.555309386843271  
 5.853750000000000E9    -1.700882395201306E1  -4.893953333352487  
 5.855000000000000E9    -1.693377828695710E1  -5.220384153067551  
 5.856250000000000E9    -1.686441063214548E1  -5.547613161136630  
 5.857500000000000E9    -1.679273227181990E1  -5.901794523381336  
 5.858750000000000E9    -1.671964259902569E1  -6.280574643099159  
