#  HZ   S   DB   R     50.00 
! Rohde & Schwarz ZVA24 4Ports - Version 3.60 - 1145.1110k28 SN: 101513
! Date: 2019-08-26 13:23:20
! Measurement: S33 
! 
 5.500000000000000E9    -1.227617135285906E1   1.544691184583413E2  
 5.501250000000000E9    -1.229136181255241E1   1.541799671121786E2  
 5.502500000000000E9    -1.231050864222942E1   1.538949435399608E2  
 5.503750000000000E9    -1.233495421954686E1   1.536226671797502E2  
 5.505000000000000E9    -1.236112299311483E1   1.533938939624200E2  
 5.506250000000000E9    -1.239258476022391E1   1.531695617205621E2  
 5.507500000000000E9    -1.242694503106944E1   1.529628224111938E2  
 5.508750000000000E9    -1.246062896710624E1   1.527792157477639E2  
 5.510000000000000E9    -1.249619262628882E1   1.525959031205575E2  
 5.511250000000000E9    -1.253169339289777E1   1.524362110493681E2  
 5.512500000000000E9    -1.256744355923094E1   1.522828184286027E2  
 5.513750000000000E9    -1.259881744547184E1   1.521196156843587E2  
 5.515000000000000E9    -1.262973709210131E1   1.519266045950241E2  
 5.516250000000000E9    -1.265840716796280E1   1.517428988628383E2  
 5.517500000000000E9    -1.268905588570486E1   1.515279826573889E2  
 5.518750000000000E9    -1.271698393517615E1   1.513088859246872E2  
 5.520000000000000E9    -1.274566827499399E1   1.510824760006464E2  
 5.521250000000000E9    -1.277430180111835E1   1.508483663898111E2  
 5.522500000000000E9    -1.280247189698071E1   1.506357997135404E2  
 5.523750000000000E9    -1.282491687812094E1   1.504254093213736E2  
 5.525000000000000E9    -1.284533447876309E1   1.502262307870839E2  
 5.526250000000000E9    -1.285961839315614E1   1.500145865607509E2  
 5.527500000000000E9    -1.286955019500614E1   1.497754217639624E2  
 5.528750000000000E9    -1.287902415552444E1   1.495212531154554E2  
 5.530000000000000E9    -1.289207766190682E1   1.492584440734745E2  
 5.531250000000000E9    -1.290513000178217E1   1.489882510079469E2  
 5.532500000000000E9    -1.292180879795419E1   1.487302119705121E2  
 5.533750000000000E9    -1.294143779383702E1   1.484634285309090E2  
 5.535000000000000E9    -1.296300723261116E1   1.481878198180354E2  
 5.536250000000000E9    -1.299140881111799E1   1.479093393607633E2  
 5.537500000000000E9    -1.302576489232713E1   1.476330741033029E2  
 5.538750000000000E9    -1.306876939353755E1   1.473939656721526E2  
 5.540000000000000E9    -1.311329178771013E1   1.471709059581822E2  
 5.541250000000000E9    -1.315857336384584E1   1.469762806129723E2  
 5.542500000000000E9    -1.320659193653802E1   1.467961502279112E2  
 5.543750000000000E9    -1.325144400548773E1   1.466108111268984E2  
 5.545000000000000E9    -1.329980843964287E1   1.464179291550477E2  
 5.546250000000000E9    -1.334725124559358E1   1.462464087608230E2  
 5.547500000000000E9    -1.339057611375510E1   1.460758977831000E2  
 5.548750000000000E9    -1.343339230721855E1   1.459156212145548E2  
 5.550000000000000E9    -1.347271318400115E1   1.457561180708426E2  
 5.551250000000000E9    -1.350859498774734E1   1.455838951071248E2  
 5.552500000000000E9    -1.354385071035533E1   1.454380427079630E2  
 5.553750000000000E9    -1.357257788533697E1   1.453090123957649E2  
 5.555000000000000E9    -1.359473559910956E1   1.451871567997766E2  
 5.556250000000000E9    -1.360909608743463E1   1.450654095282690E2  
 5.557500000000000E9    -1.361623601130892E1   1.449201026170027E2  
 5.558750000000000E9    -1.362000130956379E1   1.447455323527383E2  
 5.560000000000000E9    -1.362135944493560E1   1.445528442430763E2  
 5.561250000000000E9    -1.362158768825502E1   1.443319282296780E2  
 5.562500000000000E9    -1.362434128425977E1   1.440697830455968E2  
 5.563750000000000E9    -1.363049418725883E1   1.437804850994063E2  
 5.565000000000000E9    -1.364470632590923E1   1.434796408436318E2  
 5.566250000000000E9    -1.366483573724491E1   1.431796516968771E2  
 5.567500000000000E9    -1.369034508870267E1   1.428906137983663E2  
 5.568750000000000E9    -1.371932424247837E1   1.426185705304762E2  
 5.570000000000000E9    -1.374859531042478E1   1.423648914071906E2  
 5.571250000000000E9    -1.378340965930770E1   1.421074027084584E2  
 5.572500000000000E9    -1.381723147855548E1   1.418404886073749E2  
 5.573750000000000E9    -1.385151019852743E1   1.415958615258523E2  
 5.575000000000000E9    -1.388202689096658E1   1.413151282618695E2  
 5.576250000000000E9    -1.391287262808830E1   1.410158791081863E2  
 5.577500000000000E9    -1.394211572624083E1   1.407005587409004E2  
 5.578750000000000E9    -1.397613287179257E1   1.403935238090063E2  
 5.580000000000000E9    -1.400964118977283E1   1.400735528546875E2  
 5.581250000000000E9    -1.404260780989846E1   1.397833491373689E2  
 5.582500000000000E9    -1.406945630598470E1   1.395136574387315E2  
 5.583750000000000E9    -1.409097783551165E1   1.392400549895051E2  
 5.585000000000000E9    -1.411080501158828E1   1.389455656501474E2  
 5.586250000000000E9    -1.412715029835533E1   1.386518095837188E2  
 5.587500000000000E9    -1.414256927067103E1   1.383605501719359E2  
 5.588750000000000E9    -1.416176845739109E1   1.380470995690960E2  
 5.590000000000000E9    -1.418086523609525E1   1.377470054998770E2  
 5.591250000000000E9    -1.420386065668496E1   1.374602431447416E2  
 5.592500000000000E9    -1.422552958118407E1   1.371755371645502E2  
 5.593750000000000E9    -1.424970530629707E1   1.368992124847486E2  
 5.595000000000000E9    -1.427587115959316E1   1.366213967718077E2  
 5.596250000000000E9    -1.430067957662716E1   1.363322853956707E2  
 5.597500000000000E9    -1.432981467620909E1   1.360116799346398E2  
 5.598750000000000E9    -1.436314191055513E1   1.356645808116895E2  
 5.600000000000000E9    -1.440301911943926E1   1.353015614395856E2  
 5.601250000000000E9    -1.444826469331432E1   1.349469218177680E2  
 5.602500000000000E9    -1.449742977393886E1   1.345606147540085E2  
 5.603750000000000E9    -1.455215710839909E1   1.341834148567123E2  
 5.605000000000000E9    -1.460868637095515E1   1.338094665872405E2  
 5.606250000000000E9    -1.466576219788652E1   1.334247120506429E2  
 5.607500000000000E9    -1.472233254160001E1   1.330393405368661E2  
 5.608750000000000E9    -1.477881083992380E1   1.326908928750790E2  
 5.610000000000000E9    -1.483533689945641E1   1.323619673557049E2  
 5.611250000000000E9    -1.488622682772905E1   1.320233358945966E2  
 5.612500000000000E9    -1.493466707058811E1   1.317433272155522E2  
 5.613750000000000E9    -1.497806160204604E1   1.314684321799577E2  
 5.615000000000000E9    -1.501326708033217E1   1.312056925098412E2  
 5.616250000000000E9    -1.504779948485278E1   1.309841290797613E2  
 5.617500000000000E9    -1.507255497565075E1   1.307484256035889E2  
 5.618750000000000E9    -1.509268062981712E1   1.305364891419412E2  
 5.620000000000000E9    -1.511237510770333E1   1.302987339789618E2  
 5.621250000000000E9    -1.513119358063281E1   1.300676914308238E2  
 5.622500000000000E9    -1.515016134973610E1   1.298420849277265E2  
 5.623750000000000E9    -1.516969991737932E1   1.296281907670464E2  
 5.625000000000000E9    -1.519008834364845E1   1.294158193407925E2  
 5.626250000000000E9    -1.521380344860374E1   1.291825357455323E2  
 5.627500000000000E9    -1.523716749610689E1   1.289400846112687E2  
 5.628750000000000E9    -1.525955523195864E1   1.286952557160094E2  
 5.630000000000000E9    -1.528147916704790E1   1.284572021018531E2  
 5.631250000000000E9    -1.530293543216483E1   1.281701054478035E2  
 5.632500000000000E9    -1.532430772466233E1   1.278078883501811E2  
 5.633750000000000E9    -1.534996916343161E1   1.274185392949547E2  
 5.635000000000000E9    -1.537854329281923E1   1.269939785792482E2  
 5.636250000000000E9    -1.540971387977173E1   1.265443895154296E2  
 5.637500000000000E9    -1.544037719991026E1   1.261021404345834E2  
 5.638750000000000E9    -1.546678781516876E1   1.256585768055785E2  
 5.640000000000000E9    -1.549285840497284E1   1.252075439851632E2  
 5.641250000000000E9    -1.551608991394567E1   1.247112296809102E2  
 5.642500000000000E9    -1.553593676586848E1   1.242243361882626E2  
 5.643750000000000E9    -1.555124762445877E1   1.237130449323827E2  
 5.645000000000000E9    -1.556541565689075E1   1.231833845848249E2  
 5.646250000000000E9    -1.557844162042873E1   1.226050770142018E2  
 5.647500000000000E9    -1.559426084752703E1   1.220208152490265E2  
 5.648750000000000E9    -1.562059999553718E1   1.213965922810391E2  
 5.650000000000000E9    -1.565180298851546E1   1.207960401721216E2  
 5.651250000000000E9    -1.569505881248007E1   1.202193960035942E2  
 5.652500000000000E9    -1.574133976833239E1   1.196775333892191E2  
 5.653750000000000E9    -1.579481824460769E1   1.191671158860980E2  
 5.655000000000000E9    -1.585353722428920E1   1.186618234296797E2  
 5.656250000000000E9    -1.591816986219690E1   1.181994276484133E2  
 5.657500000000000E9    -1.598934745061830E1   1.177736604332761E2  
 5.658750000000000E9    -1.606122710332519E1   1.173724790557217E2  
 5.660000000000000E9    -1.613232067425033E1   1.170208887146169E2  
 5.661250000000000E9    -1.619873043107636E1   1.166805156907794E2  
 5.662500000000000E9    -1.626098500006767E1   1.163442455809225E2  
 5.663750000000000E9    -1.631940382625203E1   1.159822590402472E2  
 5.665000000000000E9    -1.637126732798182E1   1.156086688361326E2  
 5.666250000000000E9    -1.642216282085392E1   1.151767331790938E2  
 5.667500000000000E9    -1.647208195976122E1   1.147581819301560E2  
 5.668750000000000E9    -1.651686154144121E1   1.143000101490569E2  
 5.670000000000000E9    -1.656090214082754E1   1.138739965407870E2  
 5.671250000000000E9    -1.660081204905649E1   1.134103702026782E2  
 5.672500000000000E9    -1.663724949947100E1   1.129746750609963E2  
 5.673750000000000E9    -1.667559911278917E1   1.125226566522436E2  
 5.675000000000000E9    -1.670961086815688E1   1.121318384604224E2  
 5.676250000000000E9    -1.673901594805373E1   1.117237156282677E2  
 5.677500000000000E9    -1.677143022150658E1   1.113472758363433E2  
 5.678750000000000E9    -1.680447645887131E1   1.109816909444783E2  
 5.680000000000000E9    -1.684017210596072E1   1.106569525878196E2  
 5.681250000000000E9    -1.687990749836992E1   1.103782649222143E2  
 5.682500000000000E9    -1.691522275085399E1   1.101233536045919E2  
 5.683750000000000E9    -1.694274207578880E1   1.099134547311221E2  
 5.685000000000000E9    -1.696112652768310E1   1.096504991160918E2  
 5.686250000000000E9    -1.697829227009825E1   1.093233048326954E2  
 5.687500000000000E9    -1.699565522371052E1   1.089046964720394E2  
 5.688750000000000E9    -1.701806278699045E1   1.084149550668187E2  
 5.690000000000000E9    -1.704608607600050E1   1.078556059829054E2  
 5.691250000000000E9    -1.707692113550068E1   1.072445039449589E2  
 5.692500000000000E9    -1.711860906386736E1   1.065699568682871E2  
 5.693750000000000E9    -1.716194223542441E1   1.058976962040496E2  
 5.695000000000000E9    -1.721179860141822E1   1.052182922157625E2  
 5.696250000000000E9    -1.725973444069647E1   1.045281486843870E2  
 5.697500000000000E9    -1.729799325657350E1   1.038340407023066E2  
 5.698750000000000E9    -1.733491039105776E1   1.031278630199107E2  
 5.700000000000000E9    -1.736540870754433E1   1.024383516026207E2  
 5.701250000000000E9    -1.739071264292011E1   1.017378760137492E2  
 5.702500000000000E9    -1.741107181036361E1   1.010286317828881E2  
 5.703750000000000E9    -1.742502428824933E1   1.003213557346055E2  
 5.705000000000000E9    -1.744099956605885E1   9.966002245772529E1  
 5.706250000000000E9    -1.745731655295166E1   9.898850191489605E1  
 5.707500000000000E9    -1.747468944251347E1   9.838229249639272E1  
 5.708750000000000E9    -1.749815135843518E1   9.779082028092226E1  
 5.710000000000000E9    -1.752172017367185E1   9.723439530768360E1  
 5.711250000000000E9    -1.755559357504741E1   9.663856871868032E1  
 5.712500000000000E9    -1.759792800250336E1   9.604217724234637E1  
 5.713750000000000E9    -1.764810321186178E1   9.541471966228620E1  
 5.715000000000000E9    -1.770552261613231E1   9.474338841219772E1  
 5.716250000000000E9    -1.777223299126350E1   9.408174088767387E1  
 5.717500000000000E9    -1.784641549809886E1   9.347983348404729E1  
 5.718750000000000E9    -1.793026446639377E1   9.292968501184691E1  
 5.720000000000000E9    -1.802025363978375E1   9.224652463810712E1  
 5.721250000000000E9    -1.810454641158581E1   9.169391632159430E1  
 5.722500000000000E9    -1.818571617949632E1   9.117716220759911E1  
 5.723750000000000E9    -1.826062915652651E1   9.066295574721806E1  
 5.725000000000000E9    -1.833110127619238E1   9.017986565379430E1  
 5.726250000000000E9    -1.839208069150023E1   8.971049855023875E1  
 5.727500000000000E9    -1.843816254314555E1   8.923425559295710E1  
 5.728750000000000E9    -1.846827444740917E1   8.873775352643524E1  
 5.730000000000000E9    -1.848589080227619E1   8.822359307376570E1  
 5.731250000000000E9    -1.849294096823831E1   8.765484506933242E1  
 5.732500000000000E9    -1.849907715778319E1   8.702424910993607E1  
 5.733750000000000E9    -1.850718999237669E1   8.638733734319169E1  
 5.735000000000000E9    -1.851846842987452E1   8.577518909008833E1  
 5.736250000000000E9    -1.853465084761097E1   8.518377250138038E1  
 5.737500000000000E9    -1.855513698857227E1   8.467177523664437E1  
 5.738750000000000E9    -1.856323900421836E1   8.419118469080840E1  
 5.740000000000000E9    -1.857198152210145E1   8.368924952041058E1  
 5.741250000000000E9    -1.857469853974787E1   8.318530535343567E1  
 5.742500000000000E9    -1.857454923605550E1   8.265377770143333E1  
 5.743750000000000E9    -1.858529617996295E1   8.206493589328106E1  
 5.745000000000000E9    -1.859199494432592E1   8.141162476328300E1  
 5.746250000000000E9    -1.860441223603550E1   8.069273700828332E1  
 5.747500000000000E9    -1.861891548823585E1   7.994245907482689E1  
 5.748750000000000E9    -1.864581399062167E1   7.911138953245306E1  
 5.750000000000000E9    -1.867542373119383E1   7.827585673966414E1  
 5.751250000000000E9    -1.870595709416561E1   7.741741477183415E1  
 5.752500000000000E9    -1.873591989098565E1   7.655574626509444E1  
 5.753750000000000E9    -1.876631786029258E1   7.567738685665873E1  
 5.755000000000000E9    -1.878322862969752E1   7.476014822788112E1  
 5.756250000000000E9    -1.880414635150887E1   7.384385716576985E1  
 5.757500000000000E9    -1.881583892825973E1   7.292134785030390E1  
 5.758750000000000E9    -1.883075081113794E1   7.204954549664348E1  
 5.760000000000000E9    -1.884401345255435E1   7.118296147780603E1  
 5.761250000000000E9    -1.884732558183249E1   7.038859182380215E1  
 5.762500000000000E9    -1.884505519612450E1   6.966335219112733E1  
 5.763750000000000E9    -1.884206180900049E1   6.898339411537241E1  
 5.765000000000000E9    -1.883448563319313E1   6.831037108103455E1  
 5.766250000000000E9    -1.881976275491818E1   6.766913164019242E1  
 5.767500000000000E9    -1.880932684293797E1   6.701399168453335E1  
 5.768750000000000E9    -1.880077805613020E1   6.636125048741990E1  
 5.770000000000000E9    -1.880062330858586E1   6.569597112509679E1  
 5.771250000000000E9    -1.880831277234024E1   6.506775257451156E1  
 5.772500000000000E9    -1.881697978858926E1   6.441499005176173E1  
 5.773750000000000E9    -1.883157345511775E1   6.376146125479627E1  
 5.775000000000000E9    -1.884535835749060E1   6.307588704520028E1  
 5.776250000000000E9    -1.886010323767658E1   6.240808838994211E1  
 5.777500000000000E9    -1.887569648400480E1   6.169317123104282E1  
 5.778750000000000E9    -1.889261961200316E1   6.091646704987974E1  
 5.780000000000000E9    -1.890312441461099E1   6.007742653009230E1  
 5.781250000000000E9    -1.891196909355697E1   5.920299011326407E1  
 5.782500000000000E9    -1.892474893341493E1   5.824405552567423E1  
 5.783750000000000E9    -1.893336141660178E1   5.725642583334438E1  
 5.785000000000000E9    -1.893822223692304E1   5.625417505758642E1  
 5.786250000000000E9    -1.894521655557179E1   5.526687146214648E1  
 5.787500000000000E9    -1.894978730639916E1   5.427853491308780E1  
 5.788750000000000E9    -1.895557181573887E1   5.333425494229104E1  
 5.790000000000000E9    -1.896030934553381E1   5.243217899623610E1  
 5.791250000000000E9    -1.896281115607419E1   5.158971004226319E1  
 5.792500000000000E9    -1.896601606643571E1   5.080378148902952E1  
 5.793750000000000E9    -1.896519791183010E1   5.007131592778742E1  
 5.795000000000000E9    -1.897094645016577E1   4.940001655493918E1  
 5.796250000000000E9    -1.897292813874947E1   4.882615487537728E1  
 5.797500000000000E9    -1.897076291882727E1   4.828631681730937E1  
 5.798750000000000E9    -1.896788687877867E1   4.779645092652208E1  
 5.800000000000000E9    -1.896155323616567E1   4.729353166183674E1  
 5.801250000000000E9    -1.895284601230580E1   4.676207634369857E1  
 5.802500000000000E9    -1.894928914046754E1   4.621092840223088E1  
 5.803750000000000E9    -1.894092025374055E1   4.567823429587469E1  
 5.805000000000000E9    -1.892994494399051E1   4.512233996708035E1  
 5.806250000000000E9    -1.891525741003635E1   4.453728865039845E1  
 5.807500000000000E9    -1.889760904866840E1   4.387570018406083E1  
 5.808750000000000E9    -1.887486896173171E1   4.314988704975637E1  
 5.810000000000000E9    -1.885264744707477E1   4.239852089981921E1  
 5.811250000000000E9    -1.882869416721926E1   4.163085595992062E1  
 5.812500000000000E9    -1.879797695955475E1   4.083077085387795E1  
 5.813750000000000E9    -1.875810302738634E1   4.002516186742746E1  
 5.815000000000000E9    -1.871472001044554E1   3.917139164187267E1  
 5.816250000000000E9    -1.866635778298181E1   3.834144608746872E1  
 5.817500000000000E9    -1.861396955940749E1   3.753531205781750E1  
 5.818750000000000E9    -1.856375175987357E1   3.669505269211254E1  
 5.820000000000000E9    -1.851317889799545E1   3.588257964329778E1  
 5.821250000000000E9    -1.846302675110700E1   3.512352206706007E1  
 5.822500000000000E9    -1.841960143398040E1   3.439732091616758E1  
 5.823750000000000E9    -1.838234323355842E1   3.370022558514269E1  
 5.825000000000000E9    -1.834912749539963E1   3.304137266002722E1  
 5.826250000000000E9    -1.831533149334186E1   3.242831364094243E1  
 5.827500000000000E9    -1.829233800693476E1   3.188671606354210E1  
 5.828750000000000E9    -1.826181106361721E1   3.138201377977166E1  
 5.830000000000000E9    -1.823098857053179E1   3.085096014791188E1  
 5.831250000000000E9    -1.819511178892396E1   3.025476092545329E1  
 5.832500000000000E9    -1.816156526811772E1   2.963293449555909E1  
 5.833750000000000E9    -1.813331357576875E1   2.897135988934724E1  
 5.835000000000000E9    -1.810962064387916E1   2.824163601235724E1  
 5.836250000000000E9    -1.809102869185132E1   2.749102241379805E1  
 5.837500000000000E9    -1.807254988530700E1   2.671627231938630E1  
 5.838750000000000E9    -1.805523378575015E1   2.597327133861598E1  
 5.840000000000000E9    -1.803471275397293E1   2.520265597329968E1  
 5.841250000000000E9    -1.801036504740094E1   2.443556034363856E1  
 5.842500000000000E9    -1.797793239472268E1   2.370214760427441E1  
 5.843750000000000E9    -1.793911095915457E1   2.297416141585115E1  
 5.845000000000000E9    -1.789358250954644E1   2.226871319682428E1  
 5.846250000000000E9    -1.784124564684065E1   2.157246617048662E1  
 5.847500000000000E9    -1.778687822129399E1   2.085084239042352E1  
 5.848750000000000E9    -1.773245659108206E1   2.017659203435109E1  
 5.850000000000000E9    -1.767704304929015E1   1.952485731291030E1  
 5.851250000000000E9    -1.762750814072097E1   1.889681562543479E1  
 5.852500000000000E9    -1.757828846357409E1   1.833226206376603E1  
 5.853750000000000E9    -1.753326697227005E1   1.779191547199834E1  
 5.855000000000000E9    -1.748697558926935E1   1.726229386950305E1  
 5.856250000000000E9    -1.744619008042332E1   1.674199176084811E1  
 5.857500000000000E9    -1.741078256757307E1   1.623196867526245E1  
