#  HZ   S   DB   R     50.00 
! Rohde & Schwarz ZVA24 4Ports - Version 3.60 - 1145.1110k28 SN: 101513
! Date: 2019-08-26 13:09:36
! Measurement: S33 
! 
 5.500000000000000E9    -1.671394714023374E1   1.542377695104534E2  
 5.501250000000000E9    -1.673507475705888E1   1.540215557308958E2  
 5.502500000000000E9    -1.675601742542668E1   1.538178096299487E2  
 5.503750000000000E9    -1.677741478828060E1   1.536279608454886E2  
 5.505000000000000E9    -1.679609620151135E1   1.534501493549086E2  
 5.506250000000000E9    -1.681770997699443E1   1.532433342094934E2  
 5.507500000000000E9    -1.684451682925409E1   1.530042344199267E2  
 5.508750000000000E9    -1.687112483426945E1   1.527806002823283E2  
 5.510000000000000E9    -1.690144689141789E1   1.525371055558750E2  
 5.511250000000000E9    -1.693527014141596E1   1.522985364482262E2  
 5.512500000000000E9    -1.697591490911671E1   1.520573841979525E2  
 5.513750000000000E9    -1.701322361635965E1   1.518290358060642E2  
 5.515000000000000E9    -1.705234162319696E1   1.515804845135937E2  
 5.516250000000000E9    -1.708885443123540E1   1.513586207912478E2  
 5.517500000000000E9    -1.712468590598304E1   1.510879056475567E2  
 5.518750000000000E9    -1.715653766084650E1   1.508032266453466E2  
 5.520000000000000E9    -1.719029698870980E1   1.504955456584624E2  
 5.521250000000000E9    -1.722535166262808E1   1.501750773397714E2  
 5.522500000000000E9    -1.725769215021427E1   1.498688763367209E2  
 5.523750000000000E9    -1.728781953549391E1   1.495249923613044E2  
 5.525000000000000E9    -1.731444901182321E1   1.491715350575599E2  
 5.526250000000000E9    -1.735006326645083E1   1.487729365888000E2  
 5.527500000000000E9    -1.738576207041136E1   1.483651725985476E2  
 5.528750000000000E9    -1.743107197668889E1   1.480094079353983E2  
 5.530000000000000E9    -1.747609560648803E1   1.476773966073969E2  
 5.531250000000000E9    -1.751551752327289E1   1.474008634862400E2  
 5.532500000000000E9    -1.755901543658865E1   1.471271904920422E2  
 5.533750000000000E9    -1.760036027475894E1   1.468356591679828E2  
 5.535000000000000E9    -1.764603400229139E1   1.465564005209140E2  
 5.536250000000000E9    -1.769539711547671E1   1.462707345713425E2  
 5.537500000000000E9    -1.775237941080090E1   1.460051900642323E2  
 5.538750000000000E9    -1.781090272151405E1   1.457775575484409E2  
 5.540000000000000E9    -1.787410554486104E1   1.455678691174811E2  
 5.541250000000000E9    -1.794234319140830E1   1.453928765086889E2  
 5.542500000000000E9    -1.800336179782974E1   1.452739977934637E2  
 5.543750000000000E9    -1.806406913468946E1   1.451649546094026E2  
 5.545000000000000E9    -1.811925643384173E1   1.450172891566237E2  
 5.546250000000000E9    -1.817040281545447E1   1.448536166843372E2  
 5.547500000000000E9    -1.821656691099460E1   1.446897256930240E2  
 5.548750000000000E9    -1.826378987927404E1   1.444834834274611E2  
 5.550000000000000E9    -1.830910543853695E1   1.442362846165250E2  
 5.551250000000000E9    -1.835537333173046E1   1.439581950805666E2  
 5.552500000000000E9    -1.840207406821642E1   1.437402617043413E2  
 5.553750000000000E9    -1.843890846320352E1   1.435477399889920E2  
 5.555000000000000E9    -1.846835307111160E1   1.433308651868734E2  
 5.556250000000000E9    -1.848837036583431E1   1.431095753926642E2  
 5.557500000000000E9    -1.850144766298740E1   1.428148457860670E2  
 5.558750000000000E9    -1.850784944509237E1   1.425051929279595E2  
 5.560000000000000E9    -1.851708949909166E1   1.421221001273475E2  
 5.561250000000000E9    -1.852925084379761E1   1.416784958968580E2  
 5.562500000000000E9    -1.854783439138167E1   1.411888254404771E2  
 5.563750000000000E9    -1.857071176201768E1   1.406672696120045E2  
 5.565000000000000E9    -1.860805330487726E1   1.401110708952230E2  
 5.566250000000000E9    -1.864870899046077E1   1.395620520810207E2  
 5.567500000000000E9    -1.869814438945033E1   1.389957351147084E2  
 5.568750000000000E9    -1.876106236307017E1   1.384536868696798E2  
 5.570000000000000E9    -1.882617488356359E1   1.379357186888985E2  
 5.571250000000000E9    -1.889542915469842E1   1.374187270143528E2  
 5.572500000000000E9    -1.896422561197623E1   1.368781964549031E2  
 5.573750000000000E9    -1.903517795736409E1   1.363198228157380E2  
 5.575000000000000E9    -1.911015438477561E1   1.357092904283239E2  
 5.576250000000000E9    -1.919763567100007E1   1.350757625042486E2  
 5.577500000000000E9    -1.928985526426179E1   1.344581748169864E2  
 5.578750000000000E9    -1.939086382541263E1   1.338927761121819E2  
 5.580000000000000E9    -1.949495374514766E1   1.333692964661798E2  
 5.581250000000000E9    -1.959290718108897E1   1.328743402265584E2  
 5.582500000000000E9    -1.968881154336251E1   1.324787118062635E2  
 5.583750000000000E9    -1.978026185291585E1   1.320876396942371E2  
 5.585000000000000E9    -1.987253477285037E1   1.317628777302400E2  
 5.586250000000000E9    -1.995648154157626E1   1.314417007508832E2  
 5.587500000000000E9    -2.003608715847939E1   1.311709007556233E2  
 5.588750000000000E9    -2.011280167880334E1   1.309035396480658E2  
 5.590000000000000E9    -2.018156416366664E1   1.306042856055390E2  
 5.591250000000000E9    -2.024936565469615E1   1.303577608626524E2  
 5.592500000000000E9    -2.032150940952137E1   1.300723097725513E2  
 5.593750000000000E9    -2.038851152067182E1   1.297469777609638E2  
 5.595000000000000E9    -2.046216643654822E1   1.294244347352403E2  
 5.596250000000000E9    -2.053083075596497E1   1.291097823788983E2  
 5.597500000000000E9    -2.060290910395464E1   1.287576752938120E2  
 5.598750000000000E9    -2.067570736634482E1   1.284041091618526E2  
 5.600000000000000E9    -2.075455727906065E1   1.279999264475283E2  
 5.601250000000000E9    -2.082879474671799E1   1.275686870924655E2  
 5.602500000000000E9    -2.090821380894383E1   1.269976975908591E2  
 5.603750000000000E9    -2.099779397361903E1   1.263706025250378E2  
 5.605000000000000E9    -2.108529019261500E1   1.257721651835201E2  
 5.606250000000000E9    -2.117358322153153E1   1.251632199507661E2  
 5.607500000000000E9    -2.125632624557445E1   1.245303544583126E2  
 5.608750000000000E9    -2.133983126746334E1   1.238625332146337E2  
 5.610000000000000E9    -2.142634674559051E1   1.231468066328183E2  
 5.611250000000000E9    -2.151284872695241E1   1.224045426152080E2  
 5.612500000000000E9    -2.160672349468301E1   1.216898159136684E2  
 5.613750000000000E9    -2.169899080601954E1   1.209748947281285E2  
 5.615000000000000E9    -2.178191858200214E1   1.202620902648846E2  
 5.616250000000000E9    -2.187503192506044E1   1.195969050650977E2  
 5.617500000000000E9    -2.196581731694084E1   1.188846655772510E2  
 5.618750000000000E9    -2.206421104193453E1   1.182501544736094E2  
 5.620000000000000E9    -2.216621770538940E1   1.176050577487331E2  
 5.621250000000000E9    -2.226760639866598E1   1.170357443692619E2  
 5.622500000000000E9    -2.237267295715581E1   1.164596726097527E2  
 5.623750000000000E9    -2.248091902737379E1   1.159756481035151E2  
 5.625000000000000E9    -2.259534166987831E1   1.154689968621687E2  
 5.626250000000000E9    -2.271784929129912E1   1.149926001113610E2  
 5.627500000000000E9    -2.283234576562968E1   1.144972429715892E2  
 5.628750000000000E9    -2.294883256940717E1   1.139903178798100E2  
 5.630000000000000E9    -2.306063654848927E1   1.135203678885591E2  
 5.631250000000000E9    -2.317100107374672E1   1.130041784764416E2  
 5.632500000000000E9    -2.329181017195242E1   1.124592859128716E2  
 5.633750000000000E9    -2.341209181916553E1   1.118461282152101E2  
 5.635000000000000E9    -2.353311053882300E1   1.112405872283005E2  
 5.636250000000000E9    -2.365534535793574E1   1.106573133658710E2  
 5.637500000000000E9    -2.377578661518396E1   1.100360362774398E2  
 5.638750000000000E9    -2.388858200431049E1   1.093910390164075E2  
 5.640000000000000E9    -2.400321101404711E1   1.086946480904296E2  
 5.641250000000000E9    -2.410482098111116E1   1.079627723445809E2  
 5.642500000000000E9    -2.419328568235028E1   1.072091298721737E2  
 5.643750000000000E9    -2.425098561941692E1   1.064580795974317E2  
 5.645000000000000E9    -2.430648151326810E1   1.056184299738960E2  
 5.646250000000000E9    -2.436158888724790E1   1.046141024713693E2  
 5.647500000000000E9    -2.442701642717752E1   1.036496157575547E2  
 5.648750000000000E9    -2.450690955817519E1   1.026212573441353E2  
 5.650000000000000E9    -2.457673749284275E1   1.016383546537416E2  
 5.651250000000000E9    -2.464864441613459E1   1.006185088079931E2  
 5.652500000000000E9    -2.472998320346406E1   9.959223744700749E1  
 5.653750000000000E9    -2.483350146139594E1   9.853018545423137E1  
 5.655000000000000E9    -2.495796457808540E1   9.740837918058502E1  
 5.656250000000000E9    -2.509967069013768E1   9.636784058551788E1  
 5.657500000000000E9    -2.524477061317692E1   9.543253410472900E1  
 5.658750000000000E9    -2.538272468698205E1   9.454912237684997E1  
 5.660000000000000E9    -2.553163579280141E1   9.378418568980868E1  
 5.661250000000000E9    -2.567570136648950E1   9.301531421447095E1  
 5.662500000000000E9    -2.579242665401714E1   9.212434185079100E1  
 5.663750000000000E9    -2.590311374195571E1   9.116936815519694E1  
 5.665000000000000E9    -2.599458323186221E1   9.008278262942631E1  
 5.666250000000000E9    -2.608448433758559E1   8.895823522027632E1  
 5.667500000000000E9    -2.618595951641043E1   8.781065369596912E1  
 5.668750000000000E9    -2.628553698179220E1   8.677421173734251E1  
 5.670000000000000E9    -2.640670237098697E1   8.582517595210209E1  
 5.671250000000000E9    -2.650147688913218E1   8.478496876640431E1  
 5.672500000000000E9    -2.656155221121300E1   8.369071665030026E1  
 5.673750000000000E9    -2.661139729434727E1   8.241832670037439E1  
 5.675000000000000E9    -2.665021846841588E1   8.124621762964841E1  
 5.676250000000000E9    -2.668382542642910E1   7.995370170292209E1  
 5.677500000000000E9    -2.674278523837393E1   7.854387175877388E1  
 5.678750000000000E9    -2.681016565806939E1   7.711510182382851E1  
 5.680000000000000E9    -2.691717173710190E1   7.562099634932459E1  
 5.681250000000000E9    -2.705461096577308E1   7.421701809034703E1  
 5.682500000000000E9    -2.720904300370965E1   7.294723325966231E1  
 5.683750000000000E9    -2.737678907507654E1   7.187243335663338E1  
 5.685000000000000E9    -2.753596186291890E1   7.095350467462836E1  
 5.686250000000000E9    -2.769332065220215E1   7.006488896227248E1  
 5.687500000000000E9    -2.783975840677580E1   6.922069129213904E1  
 5.688750000000000E9    -2.797475799929926E1   6.833100625497488E1  
 5.690000000000000E9    -2.807698964915144E1   6.722659417792870E1  
 5.691250000000000E9    -2.814457443712274E1   6.601455474382254E1  
 5.692500000000000E9    -2.819782715176446E1   6.463513861650560E1  
 5.693750000000000E9    -2.823704766915247E1   6.323136582936939E1  
 5.695000000000000E9    -2.827479504108628E1   6.181198051612137E1  
 5.696250000000000E9    -2.827519135725389E1   6.030513867084821E1  
 5.697500000000000E9    -2.825875680860680E1   5.885694655797823E1  
 5.698750000000000E9    -2.820774280728155E1   5.737855297198558E1  
 5.700000000000000E9    -2.814007834439840E1   5.589668199671343E1  
 5.701250000000000E9    -2.806579421159520E1   5.438177044119540E1  
 5.702500000000000E9    -2.796198707102855E1   5.293387442441670E1  
 5.703750000000000E9    -2.784275047206072E1   5.147626341386008E1  
 5.705000000000000E9    -2.774794679552243E1   5.002546259170872E1  
 5.706250000000000E9    -2.764616762182821E1   4.855400234993994E1  
 5.707500000000000E9    -2.755176683241733E1   4.721976471262059E1  
 5.708750000000000E9    -2.747334141982942E1   4.573301464978411E1  
 5.710000000000000E9    -2.740593366956069E1   4.435618216763361E1  
 5.711250000000000E9    -2.734702485365808E1   4.293117033917206E1  
 5.712500000000000E9    -2.729459692877916E1   4.149736207631626E1  
 5.713750000000000E9    -2.724931831621695E1   3.996721433927286E1  
 5.715000000000000E9    -2.721262853951905E1   3.834063309844205E1  
 5.716250000000000E9    -2.717827640036924E1   3.663683872507189E1  
 5.717500000000000E9    -2.716573180509723E1   3.498117290171650E1  
 5.718750000000000E9    -2.716576735856454E1   3.331415964172511E1  
 5.720000000000000E9    -2.715866892124064E1   3.180141364340403E1  
 5.721250000000000E9    -2.716113370970536E1   3.033306908184400E1  
 5.722500000000000E9    -2.715337696977003E1   2.891885719771519E1  
 5.723750000000000E9    -2.711754317384634E1   2.760275653388623E1  
 5.725000000000000E9    -2.708249373820234E1   2.640687987991508E1  
 5.726250000000000E9    -2.704377009866215E1   2.527904772195355E1  
 5.727500000000000E9    -2.698948798039502E1   2.434446054840601E1  
 5.728750000000000E9    -2.691464697548739E1   2.351168888332850E1  
 5.730000000000000E9    -2.681952934014601E1   2.273463943754735E1  
 5.731250000000000E9    -2.670784901659991E1   2.199843725393912E1  
 5.732500000000000E9    -2.658902134434438E1   2.129635403853886E1  
 5.733750000000000E9    -2.646263192426776E1   2.049004603046574E1  
 5.735000000000000E9    -2.636308905200166E1   1.972036845880444E1  
 5.736250000000000E9    -2.624703168534979E1   1.899221783586857E1  
 5.737500000000000E9    -2.615405457259980E1   1.829905601511582E1  
 5.738750000000000E9    -2.604155366099590E1   1.768107862250780E1  
 5.740000000000000E9    -2.592369601692081E1   1.703745280668925E1  
 5.741250000000000E9    -2.580941720947801E1   1.642646098730090E1  
 5.742500000000000E9    -2.568775915841197E1   1.585792747026400E1  
 5.743750000000000E9    -2.556314062731819E1   1.514989972169397E1  
 5.745000000000000E9    -2.543612007106198E1   1.443525581105464E1  
 5.746250000000000E9    -2.530194210873386E1   1.367610298886020E1  
 5.747500000000000E9    -2.517243273860792E1   1.292790272723062E1  
 5.748750000000000E9    -2.503745022683653E1   1.208090578045169E1  
 5.750000000000000E9    -2.490828741381533E1   1.124064996438979E1  
 5.751250000000000E9    -2.477945440720741E1   1.040478398008442E1  
 5.752500000000000E9    -2.466148779061204E1   9.584870135173285  
 5.753750000000000E9    -2.453056191030609E1   8.793265875472415  
 5.755000000000000E9    -2.438933844002457E1   8.152359325974826  
 5.756250000000000E9    -2.424453554976209E1   7.500732756815380  
 5.757500000000000E9    -2.408000151239164E1   6.835977154854406  
 5.758750000000000E9    -2.391553567920505E1   6.136887055133995  
 5.760000000000000E9    -2.375171016314238E1   5.435250291261096  
 5.761250000000000E9    -2.359284524474460E1   4.703994144981998  
 5.762500000000000E9    -2.345162213176539E1   4.012410369151233  
 5.763750000000000E9    -2.332922185908509E1   3.319842335378318  
 5.765000000000000E9    -2.321915298947209E1   2.740369215226103  
 5.766250000000000E9    -2.311822009704735E1   2.261756423591564  
 5.767500000000000E9    -2.302136872153654E1   1.793233620332703  
 5.768750000000000E9    -2.292239095298717E1   1.372848888998031  
 5.770000000000000E9    -2.282393689711800E1   9.698661747349030E-1  
 5.771250000000000E9    -2.272608934327957E1   5.374542278694040E-1  
 5.772500000000000E9    -2.261707756888667E1   1.323045237546849E-1  
 5.773750000000000E9    -2.250411838764228E1  -3.375533532206455E-1  
 5.775000000000000E9    -2.238113532528276E1  -8.412256668924102E-1  
 5.776250000000000E9    -2.225396717561735E1  -1.363603567704576  
 5.777500000000000E9    -2.211891046488114E1  -1.982196043022121  
 5.778750000000000E9    -2.197519555838056E1  -2.669801613592746  
 5.780000000000000E9    -2.183232134614990E1  -3.360329672060639  
 5.781250000000000E9    -2.168808484747125E1  -4.091229413940615  
 5.782500000000000E9    -2.154859839125841E1  -4.892050075315028  
 5.783750000000000E9    -2.141728107030743E1  -5.683677903902336  
 5.785000000000000E9    -2.129170034772037E1  -6.411979394850730  
 5.786250000000000E9    -2.117129587512448E1  -7.095503423158924  
 5.787500000000000E9    -2.105096244380887E1  -7.776478894776055  
 5.788750000000000E9    -2.094427081077958E1  -8.310693926830581  
 5.790000000000000E9    -2.083559703762969E1  -8.823293408181158  
 5.791250000000000E9    -2.072747348464519E1  -9.297997145207548  
 5.792500000000000E9    -2.062181479244987E1  -9.730582212905944  
 5.793750000000000E9    -2.051519355064463E1  -1.014044843707003E1  
 5.795000000000000E9    -2.041285684901263E1  -1.053854208131990E1  
 5.796250000000000E9    -2.032136493999895E1  -1.093152719669679E1  
 5.797500000000000E9    -2.022540239538696E1  -1.129163809133966E1  
 5.798750000000000E9    -2.013429086483877E1  -1.162224437035443E1  
 5.800000000000000E9    -2.004169269547854E1  -1.200743602629779E1  
 5.801250000000000E9    -1.995238693201807E1  -1.238540015544747E1  
 5.802500000000000E9    -1.986903890524669E1  -1.279924985211837E1  
 5.803750000000000E9    -1.977708597412273E1  -1.318967646615209E1  
 5.805000000000000E9    -1.968683632364034E1  -1.355544415201718E1  
 5.806250000000000E9    -1.959259241948663E1  -1.392773617624196E1  
 5.807500000000000E9    -1.949231330633845E1  -1.436573848545936E1  
 5.808750000000000E9    -1.939028309130971E1  -1.479994864239940E1  
 5.810000000000000E9    -1.928416089959139E1  -1.527449884337497E1  
 5.811250000000000E9    -1.918514384359186E1  -1.573939644228741E1  
 5.812500000000000E9    -1.908525459135226E1  -1.621896188039858E1  
 5.813750000000000E9    -1.898767939482302E1  -1.663727621685893E1  
 5.815000000000000E9    -1.889164552345415E1  -1.707319516523641E1  
 5.816250000000000E9    -1.879948933090006E1  -1.747637583901657E1  
 5.817500000000000E9    -1.870639932216447E1  -1.783921633423773E1  
 5.818750000000000E9    -1.861281534573523E1  -1.820023245102925E1  
 5.820000000000000E9    -1.852517173800544E1  -1.852279133309849E1  
 5.821250000000000E9    -1.844104935259256E1  -1.881304510737390E1  
 5.822500000000000E9    -1.835957565524718E1  -1.909567852413376E1  
 5.823750000000000E9    -1.827839698644224E1  -1.934537164678100E1  
 5.825000000000000E9    -1.819170308479962E1  -1.958525021337112E1  
 5.826250000000000E9    -1.809964823049570E1  -1.982301664870913E1  
 5.827500000000000E9    -1.801315044163555E1  -2.006888793078172E1  
 5.828750000000000E9    -1.792605089745405E1  -2.030365882352483E1  
 5.830000000000000E9    -1.784047612478204E1  -2.057940748922357E1  
 5.831250000000000E9    -1.775171059436240E1  -2.088555665568044E1  
 5.832500000000000E9    -1.765969258451614E1  -2.119053023341904E1  
 5.833750000000000E9    -1.756770560550239E1  -2.155588603574284E1  
 5.835000000000000E9    -1.746757316875325E1  -2.189799854557586E1  
 5.836250000000000E9    -1.737285459721559E1  -2.234761930300789E1  
 5.837500000000000E9    -1.727238668513001E1  -2.278786309317550E1  
 5.838750000000000E9    -1.717507481599701E1  -2.327786272188403E1  
 5.840000000000000E9    -1.708195119389279E1  -2.376952045257476E1  
 5.841250000000000E9    -1.698625920746677E1  -2.426908845876568E1  
 5.842500000000000E9    -1.689890297282835E1  -2.474641131227199E1  
 5.843750000000000E9    -1.681261955668873E1  -2.520484156078845E1  
 5.845000000000000E9    -1.673133749553172E1  -2.563374709586388E1  
 5.846250000000000E9    -1.664886058833352E1  -2.603125615197424E1  
 5.847500000000000E9    -1.656517913433036E1  -2.639434106066407E1  
 5.848750000000000E9    -1.648569517052148E1  -2.672177359787741E1  
 5.850000000000000E9    -1.640750139501755E1  -2.702701494172957E1  
 5.851250000000000E9    -1.633355232102858E1  -2.731812446936000E1  
 5.852500000000000E9    -1.626096971982875E1  -2.758106008262254E1  
 5.853750000000000E9    -1.618674461008926E1  -2.784130955107487E1  
 5.855000000000000E9    -1.611338064633238E1  -2.808792652359051E1  
 5.856250000000000E9    -1.604237663816500E1  -2.834305310898549E1  
 5.857500000000000E9    -1.597183326805481E1  -2.858515455909780E1  
 5.858750000000000E9    -1.589818965837547E1  -2.886230397000113E1  
