#  HZ   S   DB   R     50.00 
! Rohde & Schwarz ZVA24 4Ports - Version 3.60 - 1145.1110k28 SN: 101513
! Date: 2019-08-26 13:14:16
! Measurement: S33 
! 
 5.500000000000000E9    -1.633726360613472E1   1.626636953946766E2  
 5.501250000000000E9    -1.635334997380933E1   1.625788537290123E2  
 5.502500000000000E9    -1.636984916227651E1   1.624941836883889E2  
 5.503750000000000E9    -1.638860936090883E1   1.624168406195285E2  
 5.505000000000000E9    -1.640370189100970E1   1.623812174204363E2  
 5.506250000000000E9    -1.642019272891836E1   1.623179595538606E2  
 5.507500000000000E9    -1.643742315365565E1   1.622556363590209E2  
 5.508750000000000E9    -1.645443686560778E1   1.621978690528379E2  
 5.510000000000000E9    -1.646637302822743E1   1.621140393978862E2  
 5.511250000000000E9    -1.648277586800807E1   1.620158483000718E2  
 5.512500000000000E9    -1.650107040422127E1   1.618920931932163E2  
 5.513750000000000E9    -1.651916712213166E1   1.617502701915657E2  
 5.515000000000000E9    -1.653917479770903E1   1.615623889238346E2  
 5.516250000000000E9    -1.656023508348192E1   1.613614347493979E2  
 5.517500000000000E9    -1.658594231883506E1   1.611334077310474E2  
 5.518750000000000E9    -1.661016921018078E1   1.608690972441577E2  
 5.520000000000000E9    -1.663631819203376E1   1.606067124187986E2  
 5.521250000000000E9    -1.666584234293642E1   1.602982323213045E2  
 5.522500000000000E9    -1.670159755802363E1   1.600155839678064E2  
 5.523750000000000E9    -1.673262657788233E1   1.597321987223514E2  
 5.525000000000000E9    -1.676922896875259E1   1.594577902205806E2  
 5.526250000000000E9    -1.680583005577515E1   1.592472085965106E2  
 5.527500000000000E9    -1.683810399160311E1   1.590480779764681E2  
 5.528750000000000E9    -1.686674338982234E1   1.588854910295662E2  
 5.530000000000000E9    -1.689237304983668E1   1.587284221401602E2  
 5.531250000000000E9    -1.691454714044658E1   1.586086773909981E2  
 5.532500000000000E9    -1.693693500922095E1   1.584863508755162E2  
 5.533750000000000E9    -1.695356658131588E1   1.583973128150401E2  
 5.535000000000000E9    -1.696786439182599E1   1.583139286175468E2  
 5.536250000000000E9    -1.698257388462172E1   1.582271456926132E2  
 5.537500000000000E9    -1.698991815660292E1   1.580951563680297E2  
 5.538750000000000E9    -1.700282083341440E1   1.579464883791770E2  
 5.540000000000000E9    -1.701556424757032E1   1.577499525436961E2  
 5.541250000000000E9    -1.703442746337593E1   1.575208861302075E2  
 5.542500000000000E9    -1.706075989527778E1   1.572962361726826E2  
 5.543750000000000E9    -1.708899679307651E1   1.570314337202482E2  
 5.545000000000000E9    -1.712418203412513E1   1.567340315035603E2  
 5.546250000000000E9    -1.716400616153359E1   1.564384960630014E2  
 5.547500000000000E9    -1.720610423422787E1   1.561516304798144E2  
 5.548750000000000E9    -1.725214909586180E1   1.558710338769815E2  
 5.550000000000000E9    -1.729432082706024E1   1.555869862333763E2  
 5.551250000000000E9    -1.733654284630112E1   1.552952633643404E2  
 5.552500000000000E9    -1.737788721572095E1   1.550266212317200E2  
 5.553750000000000E9    -1.741483499942733E1   1.547480841363561E2  
 5.555000000000000E9    -1.744901340847025E1   1.544619703372800E2  
 5.556250000000000E9    -1.748595150764386E1   1.541678999573018E2  
 5.557500000000000E9    -1.752108104463268E1   1.538609101602865E2  
 5.558750000000000E9    -1.755791774084891E1   1.535623450614884E2  
 5.560000000000000E9    -1.759631106283816E1   1.532780972813873E2  
 5.561250000000000E9    -1.763991434342358E1   1.530303395133593E2  
 5.562500000000000E9    -1.768328967467891E1   1.528061323056128E2  
 5.563750000000000E9    -1.772574094793529E1   1.526081588423584E2  
 5.565000000000000E9    -1.777261640753532E1   1.524448701613525E2  
 5.566250000000000E9    -1.781715960478687E1   1.522902410345961E2  
 5.567500000000000E9    -1.785847084235861E1   1.521218164739663E2  
 5.568750000000000E9    -1.790290756898768E1   1.519768040717149E2  
 5.570000000000000E9    -1.794939115549532E1   1.518361919459784E2  
 5.571250000000000E9    -1.799831501844398E1   1.516461370325254E2  
 5.572500000000000E9    -1.804835035103951E1   1.514417194385302E2  
 5.573750000000000E9    -1.809997425619314E1   1.512451314114486E2  
 5.575000000000000E9    -1.815106713236711E1   1.510298173309483E2  
 5.576250000000000E9    -1.820427721380210E1   1.508020581327110E2  
 5.577500000000000E9    -1.825236087876906E1   1.505572219772648E2  
 5.578750000000000E9    -1.829937131358891E1   1.503204944385493E2  
 5.580000000000000E9    -1.834932470710046E1   1.500163441009191E2  
 5.581250000000000E9    -1.839393044174158E1   1.496905377922496E2  
 5.582500000000000E9    -1.843755242643824E1   1.493981469824396E2  
 5.583750000000000E9    -1.848031925221279E1   1.490992269023873E2  
 5.585000000000000E9    -1.852267584742372E1   1.487733183054440E2  
 5.586250000000000E9    -1.856483183840792E1   1.484745042836227E2  
 5.587500000000000E9    -1.860404034042128E1   1.481792285575953E2  
 5.588750000000000E9    -1.864826775928968E1   1.479018673181842E2  
 5.590000000000000E9    -1.868816654567874E1   1.475864870955087E2  
 5.591250000000000E9    -1.873496942244107E1   1.473281780873453E2  
 5.592500000000000E9    -1.878734869819092E1   1.470891378545611E2  
 5.593750000000000E9    -1.884152262166597E1   1.468944130164086E2  
 5.595000000000000E9    -1.890389059204730E1   1.467367588483612E2  
 5.596250000000000E9    -1.895686153854474E1   1.466125255932282E2  
 5.597500000000000E9    -1.900832889402754E1   1.465251224569038E2  
 5.598750000000000E9    -1.905758002677220E1   1.464285845939913E2  
 5.600000000000000E9    -1.910741739225193E1   1.462978633687623E2  
 5.601250000000000E9    -1.915625891226114E1   1.461393807619573E2  
 5.602500000000000E9    -1.920383961541301E1   1.459357733428244E2  
 5.603750000000000E9    -1.925309678442606E1   1.457107221750104E2  
 5.605000000000000E9    -1.930697757076317E1   1.454134087712532E2  
 5.606250000000000E9    -1.935884165583354E1   1.450978702217605E2  
 5.607500000000000E9    -1.940594064087146E1   1.447557014440527E2  
 5.608750000000000E9    -1.945609234402359E1   1.443838124443916E2  
 5.610000000000000E9    -1.950227488898569E1   1.439807368992956E2  
 5.611250000000000E9    -1.954298225303920E1   1.435189997542255E2  
 5.612500000000000E9    -1.958533056158270E1   1.430528303750837E2  
 5.613750000000000E9    -1.962401583832600E1   1.425420484409193E2  
 5.615000000000000E9    -1.966567565381103E1   1.420129695416082E2  
 5.616250000000000E9    -1.971149712068553E1   1.414840688906414E2  
 5.617500000000000E9    -1.975833834405426E1   1.409449527562248E2  
 5.618750000000000E9    -1.981017737712620E1   1.404299580648842E2  
 5.620000000000000E9    -1.986591207267995E1   1.398858344829360E2  
 5.621250000000000E9    -1.992727900008603E1   1.394297273522529E2  
 5.622500000000000E9    -1.999672811556517E1   1.389991223891512E2  
 5.623750000000000E9    -2.007294206190072E1   1.386256271235260E2  
 5.625000000000000E9    -2.014976591301141E1   1.382920478079357E2  
 5.626250000000000E9    -2.022509504120779E1   1.380093318883465E2  
 5.627500000000000E9    -2.030083176601180E1   1.377493780382304E2  
 5.628750000000000E9    -2.038590898532307E1   1.374713431815468E2  
 5.630000000000000E9    -2.047036833729722E1   1.372929409636303E2  
 5.631250000000000E9    -2.054506281143074E1   1.370836792299986E2  
 5.632500000000000E9    -2.061726505735902E1   1.368141280036421E2  
 5.633750000000000E9    -2.069186564322302E1   1.364849003134703E2  
 5.635000000000000E9    -2.076466800719763E1   1.361085470245922E2  
 5.636250000000000E9    -2.084151706301303E1   1.356857341594440E2  
 5.637500000000000E9    -2.092496143478238E1   1.352266608244860E2  
 5.638750000000000E9    -2.100378450325739E1   1.348085719898351E2  
 5.640000000000000E9    -2.107559707953400E1   1.343168674806435E2  
 5.641250000000000E9    -2.114943738773276E1   1.337762679546562E2  
 5.642500000000000E9    -2.122236452357910E1   1.332753224879158E2  
 5.643750000000000E9    -2.128488399205961E1   1.328017923088289E2  
 5.645000000000000E9    -2.133985648299335E1   1.322807677719635E2  
 5.646250000000000E9    -2.140375442672810E1   1.317371672551320E2  
 5.647500000000000E9    -2.146556207795160E1   1.312882537675615E2  
 5.648750000000000E9    -2.152427543335783E1   1.308484328178318E2  
 5.650000000000000E9    -2.157485911594955E1   1.303192859022339E2  
 5.651250000000000E9    -2.164085893036216E1   1.298628996023747E2  
 5.652500000000000E9    -2.170307193666245E1   1.293797336299303E2  
 5.653750000000000E9    -2.175862886748502E1   1.289504739506793E2  
 5.655000000000000E9    -2.182576648397889E1   1.285110458032902E2  
 5.656250000000000E9    -2.188482261088277E1   1.280587959678053E2  
 5.657500000000000E9    -2.195017670606935E1   1.275518798457409E2  
 5.658750000000000E9    -2.201284709242029E1   1.269301507300211E2  
 5.660000000000000E9    -2.208145829245889E1   1.262791509543168E2  
 5.661250000000000E9    -2.217143496325577E1   1.255595394470224E2  
 5.662500000000000E9    -2.227234488883155E1   1.248794760930009E2  
 5.663750000000000E9    -2.238029745807187E1   1.242456680480032E2  
 5.665000000000000E9    -2.247545867012055E1   1.236560983536146E2  
 5.666250000000000E9    -2.255576121887808E1   1.230301006995535E2  
 5.667500000000000E9    -2.262679908219506E1   1.223349046003749E2  
 5.668750000000000E9    -2.269338242727419E1   1.214855447501581E2  
 5.670000000000000E9    -2.276017733214037E1   1.206110303575037E2  
 5.671250000000000E9    -2.282826844767168E1   1.196507806072050E2  
 5.672500000000000E9    -2.289770347567032E1   1.187021971315949E2  
 5.673750000000000E9    -2.297564828168093E1   1.177659655826918E2  
 5.675000000000000E9    -2.304853901081339E1   1.168554733750708E2  
 5.676250000000000E9    -2.311389489511747E1   1.159612126207633E2  
 5.677500000000000E9    -2.318980030954896E1   1.150759725976896E2  
 5.678750000000000E9    -2.327337417848029E1   1.141682273307306E2  
 5.680000000000000E9    -2.335963763615047E1   1.133480308379471E2  
 5.681250000000000E9    -2.346283350218408E1   1.124742613212329E2  
 5.682500000000000E9    -2.357670041228631E1   1.116269040443651E2  
 5.683750000000000E9    -2.369565140570722E1   1.108953239916636E2  
 5.685000000000000E9    -2.382241451781236E1   1.101815047331048E2  
 5.686250000000000E9    -2.396416679189676E1   1.094600260729338E2  
 5.687500000000000E9    -2.410547917664396E1   1.087414541687353E2  
 5.688750000000000E9    -2.424529054916781E1   1.080428707205347E2  
 5.690000000000000E9    -2.439131648431841E1   1.073761480717082E2  
 5.691250000000000E9    -2.453527693203796E1   1.066974894577490E2  
 5.692500000000000E9    -2.467594584650009E1   1.059846811416510E2  
 5.693750000000000E9    -2.480385095345635E1   1.052182029709177E2  
 5.695000000000000E9    -2.492613013052035E1   1.044606367341615E2  
 5.696250000000000E9    -2.502311862650283E1   1.035698514286960E2  
 5.697500000000000E9    -2.510168788604222E1   1.026620620853377E2  
 5.698750000000000E9    -2.516702922363352E1   1.016205235871804E2  
 5.700000000000000E9    -2.521723709970096E1   1.004807283505016E2  
 5.701250000000000E9    -2.527211994332865E1   9.927322881364859E1  
 5.702500000000000E9    -2.530482419057825E1   9.801989730577040E1  
 5.703750000000000E9    -2.534614547729008E1   9.677225184778804E1  
 5.705000000000000E9    -2.538016275512556E1   9.550154327560961E1  
 5.706250000000000E9    -2.542304254542069E1   9.424133241337727E1  
 5.707500000000000E9    -2.547004353834323E1   9.301558250110925E1  
 5.708750000000000E9    -2.552741802689576E1   9.184408935021175E1  
 5.710000000000000E9    -2.557178881371690E1   9.070643046480291E1  
 5.711250000000000E9    -2.562700101110368E1   8.965209819344634E1  
 5.712500000000000E9    -2.567460803040261E1   8.855836354497311E1  
 5.713750000000000E9    -2.573839466590990E1   8.744710367703723E1  
 5.715000000000000E9    -2.578726050665688E1   8.629852890943440E1  
 5.716250000000000E9    -2.584198674626595E1   8.495409517926180E1  
 5.717500000000000E9    -2.588852049432416E1   8.362045906123800E1  
 5.718750000000000E9    -2.594105526616809E1   8.208738906970150E1  
 5.720000000000000E9    -2.599439930425110E1   8.042552119604484E1  
 5.721250000000000E9    -2.604336005046600E1   7.865030055546636E1  
 5.722500000000000E9    -2.609236542280684E1   7.667321812640867E1  
 5.723750000000000E9    -2.614654026523153E1   7.464646164349550E1  
 5.725000000000000E9    -2.620565769636996E1   7.258985154044161E1  
 5.726250000000000E9    -2.627283452457384E1   7.049900146112354E1  
 5.727500000000000E9    -2.632645033621076E1   6.842597424144645E1  
 5.728750000000000E9    -2.637022971481358E1   6.640913164830111E1  
 5.730000000000000E9    -2.639542599199420E1   6.451094259798511E1  
 5.731250000000000E9    -2.641799923596422E1   6.264666328977665E1  
 5.732500000000000E9    -2.641602745659904E1   6.084305876973387E1  
 5.733750000000000E9    -2.641037770837708E1   5.905360164557563E1  
 5.735000000000000E9    -2.639761640017104E1   5.735894204522283E1  
 5.736250000000000E9    -2.638027913306950E1   5.564933768302982E1  
 5.737500000000000E9    -2.637400688405262E1   5.396493284636048E1  
 5.738750000000000E9    -2.636092388436649E1   5.234428037380967E1  
 5.740000000000000E9    -2.636172977877867E1   5.065391448909647E1  
 5.741250000000000E9    -2.636874198772745E1   4.897535276653809E1  
 5.742500000000000E9    -2.637796210529899E1   4.733140327123056E1  
 5.743750000000000E9    -2.639355820638343E1   4.562777288146744E1  
 5.745000000000000E9    -2.640755490059878E1   4.389605173535203E1  
 5.746250000000000E9    -2.642006931601646E1   4.215462721250695E1  
 5.747500000000000E9    -2.643064644842032E1   4.046175250788780E1  
 5.748750000000000E9    -2.642974559789898E1   3.872772054771120E1  
 5.750000000000000E9    -2.642652621637840E1   3.704672780735181E1  
 5.751250000000000E9    -2.639961790837681E1   3.533357840535841E1  
 5.752500000000000E9    -2.636732258866713E1   3.355198894734158E1  
 5.753750000000000E9    -2.633400458509983E1   3.182991447502599E1  
 5.755000000000000E9    -2.627274579944925E1   3.018755897655213E1  
 5.756250000000000E9    -2.622384393148370E1   2.868947464993072E1  
 5.757500000000000E9    -2.613802447912270E1   2.721317174453783E1  
 5.758750000000000E9    -2.605701804124632E1   2.588167856454886E1  
 5.760000000000000E9    -2.595201848433046E1   2.458858096674297E1  
 5.761250000000000E9    -2.583893970781972E1   2.336624393206580E1  
 5.762500000000000E9    -2.571826043430616E1   2.223558102038863E1  
 5.763750000000000E9    -2.559954605879039E1   2.104557066236054E1  
 5.765000000000000E9    -2.547436582733588E1   1.985955690059625E1  
 5.766250000000000E9    -2.536643049950937E1   1.865595363747170E1  
 5.767500000000000E9    -2.526582455623984E1   1.743799156861975E1  
 5.768750000000000E9    -2.517458863288156E1   1.623047054053493E1  
 5.770000000000000E9    -2.508970790876982E1   1.500648805984998E1  
 5.771250000000000E9    -2.501394340282105E1   1.368762355881187E1  
 5.772500000000000E9    -2.493616646410884E1   1.240332078084789E1  
 5.773750000000000E9    -2.485434857985803E1   1.104161612538543E1  
 5.775000000000000E9    -2.477251004364173E1   9.651269898779413  
 5.776250000000000E9    -2.470317944648929E1   8.214603507350157  
 5.777500000000000E9    -2.463616287416071E1   6.752680050443188  
 5.778750000000000E9    -2.456163293427202E1   5.239223495878416  
 5.780000000000000E9    -2.449131026559337E1   3.791221481850703  
 5.781250000000000E9    -2.441860381197535E1   2.440277932398177  
 5.782500000000000E9    -2.434025351515943E1   1.085532164167506  
 5.783750000000000E9    -2.425334552449366E1  -1.053057699102755E-1  
 5.785000000000000E9    -2.415592066141099E1  -1.248272554204766  
 5.786250000000000E9    -2.405236604687518E1  -2.261098514091703  
 5.787500000000000E9    -2.394803448869411E1  -3.248971299553063  
 5.788750000000000E9    -2.383536894052932E1  -4.094358207563849  
 5.790000000000000E9    -2.372330046503980E1  -4.894215500222952  
 5.791250000000000E9    -2.360365505179535E1  -5.681383766906037  
 5.792500000000000E9    -2.348947660263221E1  -6.420745241999369  
 5.793750000000000E9    -2.338517127225076E1  -7.149771564281694  
 5.795000000000000E9    -2.328055272192469E1  -7.931969835344974  
 5.796250000000000E9    -2.319358680214227E1  -8.679659012927798  
 5.797500000000000E9    -2.311611615074167E1  -9.404173169221954  
 5.798750000000000E9    -2.305180690653323E1  -1.016117476584854E1  
 5.800000000000000E9    -2.299028165283461E1  -1.088037945933958E1  
 5.801250000000000E9    -2.293169628603580E1  -1.159749194292968E1  
 5.802500000000000E9    -2.287599434807574E1  -1.233572911591934E1  
 5.803750000000000E9    -2.281284749896941E1  -1.305423629825725E1  
 5.805000000000000E9    -2.274814351390238E1  -1.379554875756665E1  
 5.806250000000000E9    -2.268540836855096E1  -1.452868813904036E1  
 5.807500000000000E9    -2.262173499918447E1  -1.532023808243264E1  
 5.808750000000000E9    -2.255166311501842E1  -1.602911474190483E1  
 5.810000000000000E9    -2.248277355612507E1  -1.676018335357461E1  
 5.811250000000000E9    -2.241160835821245E1  -1.744567507419099E1  
 5.812500000000000E9    -2.232872308529361E1  -1.804526756181548E1  
 5.813750000000000E9    -2.224569955328387E1  -1.860395625347863E1  
 5.815000000000000E9    -2.215101507263900E1  -1.913315393190307E1  
 5.816250000000000E9    -2.205703387531375E1  -1.959058040940114E1  
 5.817500000000000E9    -2.195980329835786E1  -2.001471136788514E1  
 5.818750000000000E9    -2.186159595520414E1  -2.043530473898679E1  
 5.820000000000000E9    -2.176934430744256E1  -2.082008041810243E1  
 5.821250000000000E9    -2.167577372398570E1  -2.114167588875398E1  
 5.822500000000000E9    -2.159198968898081E1  -2.152963161003852E1  
 5.823750000000000E9    -2.151497293561167E1  -2.186905410136578E1  
 5.825000000000000E9    -2.143758256096433E1  -2.229316425410218E1  
 5.826250000000000E9    -2.135925888255901E1  -2.266946597780157E1  
 5.827500000000000E9    -2.129016570567002E1  -2.310324951013392E1  
 5.828750000000000E9    -2.122677831236229E1  -2.357525193406076E1  
 5.830000000000000E9    -2.117382666072171E1  -2.404744802398527E1  
 5.831250000000000E9    -2.112309689299289E1  -2.458421023019519E1  
 5.832500000000000E9    -2.106328753498049E1  -2.508679001504323E1  
 5.833750000000000E9    -2.100931279058330E1  -2.563461816856493E1  
 5.835000000000000E9    -2.094882911056211E1  -2.616667098014676E1  
 5.836250000000000E9    -2.089019180812259E1  -2.670778884723911E1  
 5.837500000000000E9    -2.082480657103621E1  -2.728166160358644E1  
 5.838750000000000E9    -2.075831761074855E1  -2.785255841475325E1  
 5.840000000000000E9    -2.068319712299791E1  -2.841627693922682E1  
 5.841250000000000E9    -2.060531896786633E1  -2.893481125851201E1  
 5.842500000000000E9    -2.053334507795742E1  -2.941762564341675E1  
 5.843750000000000E9    -2.046729842649629E1  -2.992735711827253E1  
 5.845000000000000E9    -2.039796653838674E1  -3.034546900041920E1  
 5.846250000000000E9    -2.033244278588582E1  -3.073242330198147E1  
 5.847500000000000E9    -2.026697216027987E1  -3.102684259304191E1  
 5.848750000000000E9    -2.021173660484028E1  -3.130081956723806E1  
 5.850000000000000E9    -2.015338159057520E1  -3.147783300980948E1  
 5.851250000000000E9    -2.010371732131056E1  -3.161345760148343E1  
 5.852500000000000E9    -2.005545541496825E1  -3.173147203239681E1  
 5.853750000000000E9    -2.001746179098319E1  -3.182512488504049E1  
 5.855000000000000E9    -1.997613168303189E1  -3.197463543034612E1  
 5.856250000000000E9    -1.993716257241282E1  -3.209983855229297E1  
 5.857500000000000E9    -1.990251249033943E1  -3.219796599186514E1  
 5.858750000000000E9    -1.986873243055933E1  -3.230549274955950E1  
