#  HZ   S   DB   R     50.00 
! Rohde & Schwarz ZVA24 4Ports - Version 3.60 - 1145.1110k28 SN: 101513
! Date: 2019-08-26 13:26:06
! Measurement: S33 
! 
 5.500000000000000E9    -1.313805910869426E1   1.660782289632898E2  
 5.501250000000000E9    -1.314934570493804E1   1.657925438663784E2  
 5.502500000000000E9    -1.316480080932148E1   1.654998555838466E2  
 5.503750000000000E9    -1.318308607455619E1   1.652120221321512E2  
 5.505000000000000E9    -1.320203015528056E1   1.649590990866151E2  
 5.506250000000000E9    -1.322554729866138E1   1.646810096728351E2  
 5.507500000000000E9    -1.325124459908311E1   1.644083736705869E2  
 5.508750000000000E9    -1.327753664458108E1   1.641453950627713E2  
 5.510000000000000E9    -1.330476939087754E1   1.638665242988123E2  
 5.511250000000000E9    -1.333693905599559E1   1.635802047790861E2  
 5.512500000000000E9    -1.337075863366854E1   1.632754146470239E2  
 5.513750000000000E9    -1.340726916257611E1   1.629743878033258E2  
 5.515000000000000E9    -1.344713742924879E1   1.626289515358074E2  
 5.516250000000000E9    -1.348959016412211E1   1.622827704258778E2  
 5.517500000000000E9    -1.353840073009788E1   1.619275710223638E2  
 5.518750000000000E9    -1.358654642188244E1   1.615914326888344E2  
 5.520000000000000E9    -1.363745391478005E1   1.612711247923496E2  
 5.521250000000000E9    -1.368753854640512E1   1.609657386843403E2  
 5.522500000000000E9    -1.373687576525668E1   1.606794990959595E2  
 5.523750000000000E9    -1.378189985437894E1   1.603928430769946E2  
 5.525000000000000E9    -1.382792227566246E1   1.601511411448038E2  
 5.526250000000000E9    -1.386862093800398E1   1.599418319129991E2  
 5.527500000000000E9    -1.389985074984210E1   1.597561274242893E2  
 5.528750000000000E9    -1.392604798801022E1   1.595757450600866E2  
 5.530000000000000E9    -1.394854507415507E1   1.593905168054248E2  
 5.531250000000000E9    -1.396506324471736E1   1.592152122333113E2  
 5.532500000000000E9    -1.398047255219572E1   1.590193401241704E2  
 5.533750000000000E9    -1.399382945875999E1   1.588314082836106E2  
 5.535000000000000E9    -1.400364797573954E1   1.586309737903090E2  
 5.536250000000000E9    -1.401151562567116E1   1.583846914919567E2  
 5.537500000000000E9    -1.401951543299920E1   1.581022250879932E2  
 5.538750000000000E9    -1.403551415898239E1   1.577822504944727E2  
 5.540000000000000E9    -1.405685410352992E1   1.574229241553365E2  
 5.541250000000000E9    -1.408406975445872E1   1.570436470954646E2  
 5.542500000000000E9    -1.411798433639061E1   1.566524536786401E2  
 5.543750000000000E9    -1.415362116460696E1   1.562448133884952E2  
 5.545000000000000E9    -1.419760674016183E1   1.557985152511106E2  
 5.546250000000000E9    -1.424638216940395E1   1.553543196982686E2  
 5.547500000000000E9    -1.429776593171443E1   1.549005576735922E2  
 5.548750000000000E9    -1.435309186506490E1   1.544550837707292E2  
 5.550000000000000E9    -1.440788817523392E1   1.540025009921405E2  
 5.551250000000000E9    -1.446331348030472E1   1.535470247296615E2  
 5.552500000000000E9    -1.451847265059902E1   1.530885087620698E2  
 5.553750000000000E9    -1.457429252949001E1   1.526436002278381E2  
 5.555000000000000E9    -1.463437511650713E1   1.521779566514410E2  
 5.556250000000000E9    -1.469513508627304E1   1.517605945789712E2  
 5.557500000000000E9    -1.475357656905919E1   1.513461096758385E2  
 5.558750000000000E9    -1.481142146433787E1   1.509841825623583E2  
 5.560000000000000E9    -1.487030797822844E1   1.506315686050739E2  
 5.561250000000000E9    -1.493192697247502E1   1.503198875794374E2  
 5.562500000000000E9    -1.499172812495697E1   1.500305780181877E2  
 5.563750000000000E9    -1.504814246634306E1   1.497827133208591E2  
 5.565000000000000E9    -1.510652611209923E1   1.495406261901758E2  
 5.566250000000000E9    -1.516162562817652E1   1.493222234708957E2  
 5.567500000000000E9    -1.521532211813184E1   1.490930055769203E2  
 5.568750000000000E9    -1.527096746818184E1   1.488679461031719E2  
 5.570000000000000E9    -1.532145816616152E1   1.486303288499960E2  
 5.571250000000000E9    -1.537732267120915E1   1.483592031402196E2  
 5.572500000000000E9    -1.543348508915574E1   1.480672142077895E2  
 5.573750000000000E9    -1.549167179921773E1   1.477665584842174E2  
 5.575000000000000E9    -1.554846203851543E1   1.474466065575617E2  
 5.576250000000000E9    -1.560771176554061E1   1.471050912107313E2  
 5.577500000000000E9    -1.566009738333333E1   1.467047008597164E2  
 5.578750000000000E9    -1.571481169261226E1   1.463039945264688E2  
 5.580000000000000E9    -1.577300211830510E1   1.458541437159197E2  
 5.581250000000000E9    -1.583541247492622E1   1.454104181613774E2  
 5.582500000000000E9    -1.589647834276804E1   1.449937280293222E2  
 5.583750000000000E9    -1.595763038748733E1   1.445887998796879E2  
 5.585000000000000E9    -1.601565392039224E1   1.442041717055564E2  
 5.586250000000000E9    -1.606878554770128E1   1.438262147653951E2  
 5.587500000000000E9    -1.611810647890132E1   1.434750424614002E2  
 5.588750000000000E9    -1.616704995116023E1   1.431037835324872E2  
 5.590000000000000E9    -1.621532618056928E1   1.427261661936399E2  
 5.591250000000000E9    -1.626518467000519E1   1.423642831303165E2  
 5.592500000000000E9    -1.632185134241638E1   1.419942791769931E2  
 5.593750000000000E9    -1.638121423274117E1   1.416394264672062E2  
 5.595000000000000E9    -1.644506885912083E1   1.412975471774425E2  
 5.596250000000000E9    -1.650913287705409E1   1.409655582632741E2  
 5.597500000000000E9    -1.657330130642456E1   1.406657000461341E2  
 5.598750000000000E9    -1.663755568238841E1   1.403102900868900E2  
 5.600000000000000E9    -1.670451672664682E1   1.399292640656839E2  
 5.601250000000000E9    -1.677501991343932E1   1.395273680768384E2  
 5.602500000000000E9    -1.684851963868461E1   1.390638147028289E2  
 5.603750000000000E9    -1.692659806932137E1   1.385672551602366E2  
 5.605000000000000E9    -1.700901910839727E1   1.380427525170893E2  
 5.606250000000000E9    -1.709404963944342E1   1.374882818405802E2  
 5.607500000000000E9    -1.717802540049171E1   1.369169587472901E2  
 5.608750000000000E9    -1.726455165335318E1   1.363330368126740E2  
 5.610000000000000E9    -1.734748244806205E1   1.357733698806421E2  
 5.611250000000000E9    -1.742516461749182E1   1.351610688667218E2  
 5.612500000000000E9    -1.750403152255096E1   1.345512024842774E2  
 5.613750000000000E9    -1.758441043222776E1   1.339162211002708E2  
 5.615000000000000E9    -1.766225014457762E1   1.332663494251884E2  
 5.616250000000000E9    -1.774947405143150E1   1.326856274536473E2  
 5.617500000000000E9    -1.783559303238043E1   1.321221707683006E2  
 5.618750000000000E9    -1.791790515009767E1   1.316288993074783E2  
 5.620000000000000E9    -1.800034959435870E1   1.311289115197138E2  
 5.621250000000000E9    -1.808445682214481E1   1.306802076189288E2  
 5.622500000000000E9    -1.817295414447498E1   1.302049766496083E2  
 5.623750000000000E9    -1.826564762281485E1   1.297873498501225E2  
 5.625000000000000E9    -1.836562197011656E1   1.294138263788861E2  
 5.626250000000000E9    -1.846087150148765E1   1.290433894980166E2  
 5.627500000000000E9    -1.855966747579677E1   1.286798331120446E2  
 5.628750000000000E9    -1.866064706091313E1   1.282875263013349E2  
 5.630000000000000E9    -1.876298073086866E1   1.279279201282582E2  
 5.631250000000000E9    -1.886412732900752E1   1.275472476901694E2  
 5.632500000000000E9    -1.896184565706122E1   1.270909315416973E2  
 5.633750000000000E9    -1.906202934246251E1   1.265718932370315E2  
 5.635000000000000E9    -1.916088080338316E1   1.259793704522313E2  
 5.636250000000000E9    -1.926381720352403E1   1.253244179672028E2  
 5.637500000000000E9    -1.937362334060668E1   1.245971086554033E2  
 5.638750000000000E9    -1.949167181253601E1   1.238455656232194E2  
 5.640000000000000E9    -1.961528918437885E1   1.231420429798989E2  
 5.641250000000000E9    -1.974148014229817E1   1.224489104244658E2  
 5.642500000000000E9    -1.986166053827881E1   1.218319857484742E2  
 5.643750000000000E9    -1.997688934371699E1   1.212703202196390E2  
 5.645000000000000E9    -2.008191257585567E1   1.207649905097046E2  
 5.646250000000000E9    -2.017688124414003E1   1.202688212875986E2  
 5.647500000000000E9    -2.025713008285493E1   1.197871258270188E2  
 5.648750000000000E9    -2.033720608434415E1   1.192747828884343E2  
 5.650000000000000E9    -2.041359210365638E1   1.187106250704130E2  
 5.651250000000000E9    -2.049311232563387E1   1.181430066951811E2  
 5.652500000000000E9    -2.058118418731124E1   1.175384330613339E2  
 5.653750000000000E9    -2.066864061355144E1   1.169766499690086E2  
 5.655000000000000E9    -2.076663673174932E1   1.163567314603879E2  
 5.656250000000000E9    -2.086403398248883E1   1.157723346030414E2  
 5.657500000000000E9    -2.096704562809896E1   1.151066773811922E2  
 5.658750000000000E9    -2.107001924994284E1   1.143668328579110E2  
 5.660000000000000E9    -2.118255669251459E1   1.136360821378786E2  
 5.661250000000000E9    -2.129998329417053E1   1.128394477342729E2  
 5.662500000000000E9    -2.142307454297191E1   1.119976358792546E2  
 5.663750000000000E9    -2.154917435337682E1   1.110772326592861E2  
 5.665000000000000E9    -2.166814777979720E1   1.101354488360387E2  
 5.666250000000000E9    -2.179114653333836E1   1.091652458993239E2  
 5.667500000000000E9    -2.190532343808028E1   1.081553750696038E2  
 5.668750000000000E9    -2.201916661947371E1   1.070544523255921E2  
 5.670000000000000E9    -2.212988103501328E1   1.059656645173202E2  
 5.671250000000000E9    -2.223872109492937E1   1.048076007224803E2  
 5.672500000000000E9    -2.234335333733227E1   1.037309710801956E2  
 5.673750000000000E9    -2.245090324228100E1   1.025644734888201E2  
 5.675000000000000E9    -2.254960135702724E1   1.015157746658108E2  
 5.676250000000000E9    -2.265101310479741E1   1.003871126692655E2  
 5.677500000000000E9    -2.276107182114354E1   9.930947425098144E1  
 5.678750000000000E9    -2.287573480785804E1   9.820299795513357E1  
 5.680000000000000E9    -2.300055814539408E1   9.704350034459226E1  
 5.681250000000000E9    -2.314100563517077E1   9.589251949948934E1  
 5.682500000000000E9    -2.329773630523825E1   9.475194542771187E1  
 5.683750000000000E9    -2.347639104068938E1   9.365731015628521E1  
 5.685000000000000E9    -2.366742577281774E1   9.256704045914256E1  
 5.686250000000000E9    -2.386921155367234E1   9.146055087658721E1  
 5.687500000000000E9    -2.406671923216223E1   9.040929611200583E1  
 5.688750000000000E9    -2.427774208526437E1   8.932367540292312E1  
 5.690000000000000E9    -2.448371215382982E1   8.822346487295360E1  
 5.691250000000000E9    -2.469347782187915E1   8.707641883083113E1  
 5.692500000000000E9    -2.489123506504930E1   8.589996937294357E1  
 5.693750000000000E9    -2.507499675927537E1   8.468724459873536E1  
 5.695000000000000E9    -2.524822349860974E1   8.345846169515349E1  
 5.696250000000000E9    -2.539217266896076E1   8.216530527825042E1  
 5.697500000000000E9    -2.551848133234580E1   8.083297520027605E1  
 5.698750000000000E9    -2.562349362243074E1   7.946571565761244E1  
 5.700000000000000E9    -2.571202687580614E1   7.813167649230073E1  
 5.701250000000000E9    -2.578677910943064E1   7.677754365886189E1  
 5.702500000000000E9    -2.583921971966661E1   7.546331300366801E1  
 5.703750000000000E9    -2.587761371054437E1   7.420193103579541E1  
 5.705000000000000E9    -2.590650876228591E1   7.295269771618933E1  
 5.706250000000000E9    -2.593605854123679E1   7.160209755438241E1  
 5.707500000000000E9    -2.596701895379286E1   7.029848882470638E1  
 5.708750000000000E9    -2.602431093452523E1   6.897682182617636E1  
 5.710000000000000E9    -2.608385602826589E1   6.766151591362340E1  
 5.711250000000000E9    -2.616639353092079E1   6.643962418152631E1  
 5.712500000000000E9    -2.624714140156749E1   6.518584774145538E1  
 5.713750000000000E9    -2.633713894756078E1   6.393382585508580E1  
 5.715000000000000E9    -2.640962675546864E1   6.267518131215102E1  
 5.716250000000000E9    -2.647285736022031E1   6.124201389096884E1  
 5.717500000000000E9    -2.652526011808949E1   5.963428427590927E1  
 5.718750000000000E9    -2.657097424782435E1   5.778512394945194E1  
 5.720000000000000E9    -2.661100590043661E1   5.576418037238037E1  
 5.721250000000000E9    -2.665074000599074E1   5.353087514314367E1  
 5.722500000000000E9    -2.668965427037405E1   5.121882454601760E1  
 5.723750000000000E9    -2.671126204858446E1   4.879446153810563E1  
 5.725000000000000E9    -2.674019423538399E1   4.639902407001618E1  
 5.726250000000000E9    -2.675568811738226E1   4.394735324558470E1  
 5.727500000000000E9    -2.675249888457868E1   4.154812034285542E1  
 5.728750000000000E9    -2.674841735817132E1   3.918921677317527E1  
 5.730000000000000E9    -2.674715868557627E1   3.695403907842453E1  
 5.731250000000000E9    -2.673271078404926E1   3.488740111374447E1  
 5.732500000000000E9    -2.671021743952662E1   3.291327761136516E1  
 5.733750000000000E9    -2.669282566200656E1   3.110599022575429E1  
 5.735000000000000E9    -2.667183027605909E1   2.937311182495807E1  
 5.736250000000000E9    -2.664328230193700E1   2.768877426167907E1  
 5.737500000000000E9    -2.663992261640452E1   2.590752065525289E1  
 5.738750000000000E9    -2.663960081951610E1   2.418484560174967E1  
 5.740000000000000E9    -2.665992738775677E1   2.241395851641328E1  
 5.741250000000000E9    -2.669135711687540E1   2.074997243650100E1  
 5.742500000000000E9    -2.673430323033993E1   1.913390894945988E1  
 5.743750000000000E9    -2.676850210024995E1   1.746740129483650E1  
 5.745000000000000E9    -2.680084348753269E1   1.583597857730229E1  
 5.746250000000000E9    -2.682038379034713E1   1.422008023025028E1  
 5.747500000000000E9    -2.682956100382123E1   1.272927518052885E1  
 5.748750000000000E9    -2.681192874859341E1   1.117151824412568E1  
 5.750000000000000E9    -2.678150819759609E1   9.706413966501886  
 5.751250000000000E9    -2.672864321617491E1   8.302713350462275  
 5.752500000000000E9    -2.666652490093858E1   6.917123245353900  
 5.753750000000000E9    -2.658199586417249E1   5.665626309902027  
 5.755000000000000E9    -2.647294407444297E1   4.531966861897979  
 5.756250000000000E9    -2.636124651316327E1   3.536696604047358  
 5.757500000000000E9    -2.622083273321778E1   2.736759505083202  
 5.758750000000000E9    -2.607596773619073E1   1.892107665410097  
 5.760000000000000E9    -2.592809117171145E1   1.215966344708187  
 5.761250000000000E9    -2.577533872521436E1   5.578070408653786E-1  
 5.762500000000000E9    -2.563851390539756E1  -4.516068966370326E-2  
 5.763750000000000E9    -2.551367242173080E1  -7.534667086636983E-1  
 5.765000000000000E9    -2.540986214051329E1  -1.435917135144270  
 5.766250000000000E9    -2.533122303519873E1  -2.081406336799008  
 5.767500000000000E9    -2.525794330342114E1  -2.694025895800798  
 5.768750000000000E9    -2.519331449474497E1  -3.289629667472178  
 5.770000000000000E9    -2.512922906352017E1  -3.868021801914222  
 5.771250000000000E9    -2.506879430955468E1  -4.591136502525972  
 5.772500000000000E9    -2.500083385526566E1  -5.338140227895170  
 5.773750000000000E9    -2.494278265381644E1  -6.278768491048655  
 5.775000000000000E9    -2.487207836380568E1  -7.174474301984632  
 5.776250000000000E9    -2.479894722236488E1  -8.164465992667411  
 5.777500000000000E9    -2.474306604821548E1  -9.260037864496798  
 5.778750000000000E9    -2.467979379368540E1  -1.033084480261102E1  
 5.780000000000000E9    -2.462489436585534E1  -1.128968091163249E1  
 5.781250000000000E9    -2.456166394572184E1  -1.215181394958182E1  
 5.782500000000000E9    -2.448251177287108E1  -1.298364058589532E1  
 5.783750000000000E9    -2.439253457792671E1  -1.355958217771258E1  
 5.785000000000000E9    -2.429040081590406E1  -1.412987575569422E1  
 5.786250000000000E9    -2.417305544689654E1  -1.462358732212573E1  
 5.787500000000000E9    -2.405714404032868E1  -1.509726151753116E1  
 5.788750000000000E9    -2.392555501967869E1  -1.551894902229154E1  
 5.790000000000000E9    -2.381316877849543E1  -1.588458767176227E1  
 5.791250000000000E9    -2.369709907910205E1  -1.633181103977719E1  
 5.792500000000000E9    -2.360148475335861E1  -1.661143875471657E1  
 5.793750000000000E9    -2.352778467368309E1  -1.687483051228295E1  
 5.795000000000000E9    -2.345703788601547E1  -1.713261771022248E1  
 5.796250000000000E9    -2.338220969376522E1  -1.735754604920757E1  
 5.797500000000000E9    -2.331643324493912E1  -1.754590468980291E1  
 5.798750000000000E9    -2.326832630168802E1  -1.777063094394697E1  
 5.800000000000000E9    -2.321654600725938E1  -1.797040625647006E1  
 5.801250000000000E9    -2.316608760318420E1  -1.815533822616949E1  
 5.802500000000000E9    -2.311759316696769E1  -1.835709559705453E1  
 5.803750000000000E9    -2.304891494244776E1  -1.847550754892354E1  
 5.805000000000000E9    -2.296127369266226E1  -1.871673400975147E1  
 5.806250000000000E9    -2.288018504494772E1  -1.895791920417619E1  
 5.807500000000000E9    -2.278868301033371E1  -1.921180754126174E1  
 5.808750000000000E9    -2.267273525311808E1  -1.946685803847447E1  
 5.810000000000000E9    -2.255457723903131E1  -1.982670496395539E1  
 5.811250000000000E9    -2.244347907458333E1  -2.021206937253844E1  
 5.812500000000000E9    -2.231651775162226E1  -2.047335592065871E1  
 5.813750000000000E9    -2.218300462430983E1  -2.073302058167099E1  
 5.815000000000000E9    -2.205285860722387E1  -2.103227518654871E1  
 5.816250000000000E9    -2.193646740305238E1  -2.125434174719194E1  
 5.817500000000000E9    -2.183032186542127E1  -2.141123413626945E1  
 5.818750000000000E9    -2.172087336278426E1  -2.146311639736865E1  
 5.820000000000000E9    -2.161826506704314E1  -2.151576348127261E1  
 5.821250000000000E9    -2.152169727132531E1  -2.147155798589590E1  
 5.822500000000000E9    -2.143372956185706E1  -2.137074239448165E1  
 5.823750000000000E9    -2.134119018133092E1  -2.123187789040557E1  
 5.825000000000000E9    -2.124403293180404E1  -2.118327787458862E1  
 5.826250000000000E9    -2.114560321229067E1  -2.115887402328968E1  
 5.827500000000000E9    -2.106077076583267E1  -2.121852840029044E1  
 5.828750000000000E9    -2.097733864565939E1  -2.132043896107099E1  
 5.830000000000000E9    -2.091727242096235E1  -2.148592028870439E1  
 5.831250000000000E9    -2.086599937397232E1  -2.168037095190461E1  
 5.832500000000000E9    -2.081339160084615E1  -2.174787062851786E1  
 5.833750000000000E9    -2.075700850294822E1  -2.181688594579531E1  
 5.835000000000000E9    -2.067980713722634E1  -2.190035684524432E1  
 5.836250000000000E9    -2.059717533955192E1  -2.203671165868216E1  
 5.837500000000000E9    -2.050039358648136E1  -2.221059365967482E1  
 5.838750000000000E9    -2.039125898329894E1  -2.240755089857717E1  
 5.840000000000000E9    -2.027724325589676E1  -2.266290856684363E1  
 5.841250000000000E9    -2.016006506485020E1  -2.298330708000631E1  
 5.842500000000000E9    -2.005392386291383E1  -2.325097421372350E1  
 5.843750000000000E9    -1.995057857049665E1  -2.349446977291177E1  
 5.845000000000000E9    -1.984657342882883E1  -2.365544510796626E1  
 5.846250000000000E9    -1.974718684069725E1  -2.378038275532321E1  
 5.847500000000000E9    -1.964607571748912E1  -2.382744208624684E1  
 5.848750000000000E9    -1.954797555486134E1  -2.384275950576573E1  
 5.850000000000000E9    -1.945683416589296E1  -2.382321640247427E1  
 5.851250000000000E9    -1.936605857643880E1  -2.372122756351422E1  
 5.852500000000000E9    -1.927820966015799E1  -2.356753807046272E1  
 5.853750000000000E9    -1.919020941934884E1  -2.336984112820883E1  
 5.855000000000000E9    -1.909841836916183E1  -2.319715278058191E1  
 5.856250000000000E9    -1.900869679503282E1  -2.302922022013211E1  
 5.857500000000000E9    -1.891181664204740E1  -2.286939253712501E1  
 5.858750000000000E9    -1.881442227210718E1  -2.277064567621206E1  
