#  HZ   S   DB   R     50.00 
! Rohde & Schwarz ZVA24 4Ports - Version 3.60 - 1145.1110k28 SN: 101513
! Date: 2019-08-26 13:07:43
! Measurement: S33 
! 
 5.500000000000000E9    -1.419775814780438E1   1.329594329340272E2  
 5.501250000000000E9    -1.421731044785484E1   1.326899251353783E2  
 5.502500000000000E9    -1.423372208097265E1   1.323934675944876E2  
 5.503750000000000E9    -1.425239062485426E1   1.320682919109100E2  
 5.505000000000000E9    -1.427239155189261E1   1.317511840859515E2  
 5.506250000000000E9    -1.429776740888960E1   1.314019124984853E2  
 5.507500000000000E9    -1.432813254804622E1   1.310393347681950E2  
 5.508750000000000E9    -1.436099696173479E1   1.306903014539969E2  
 5.510000000000000E9    -1.439804316787039E1   1.303390351519074E2  
 5.511250000000000E9    -1.443991006878485E1   1.300071519709971E2  
 5.512500000000000E9    -1.448289005750697E1   1.296759496165547E2  
 5.513750000000000E9    -1.452582214722839E1   1.293740306300859E2  
 5.515000000000000E9    -1.456823700045313E1   1.290598670840546E2  
 5.516250000000000E9    -1.460701992900976E1   1.287673446392641E2  
 5.517500000000000E9    -1.464785891659266E1   1.284638875499115E2  
 5.518750000000000E9    -1.468281966427347E1   1.281668383613492E2  
 5.520000000000000E9    -1.471864826952201E1   1.278728370907650E2  
 5.521250000000000E9    -1.475254264752912E1   1.275718780905909E2  
 5.522500000000000E9    -1.478762081160632E1   1.272632540074067E2  
 5.523750000000000E9    -1.481573925226288E1   1.269525983593523E2  
 5.525000000000000E9    -1.484715755459389E1   1.266570717311718E2  
 5.526250000000000E9    -1.488014187778629E1   1.263627973273562E2  
 5.527500000000000E9    -1.490581992137945E1   1.261067160886831E2  
 5.528750000000000E9    -1.492973609461711E1   1.258507359575429E2  
 5.530000000000000E9    -1.494833343219832E1   1.255808455484205E2  
 5.531250000000000E9    -1.496352774293548E1   1.252972709147125E2  
 5.532500000000000E9    -1.497941210452615E1   1.249836500833957E2  
 5.533750000000000E9    -1.499738357286726E1   1.246316743453711E2  
 5.535000000000000E9    -1.502058120029534E1   1.242690681710043E2  
 5.536250000000000E9    -1.504901833474101E1   1.238979159971124E2  
 5.537500000000000E9    -1.507906293701068E1   1.235262720916940E2  
 5.538750000000000E9    -1.511193243050379E1   1.231624336057685E2  
 5.540000000000000E9    -1.514950182167407E1   1.227843550604052E2  
 5.541250000000000E9    -1.518643142819165E1   1.224080325705862E2  
 5.542500000000000E9    -1.523120892598180E1   1.220254105062599E2  
 5.543750000000000E9    -1.527408680570431E1   1.216689495194362E2  
 5.545000000000000E9    -1.531834176686647E1   1.212828128075038E2  
 5.546250000000000E9    -1.536497283246358E1   1.208948622130212E2  
 5.547500000000000E9    -1.540966683481813E1   1.205375706478949E2  
 5.548750000000000E9    -1.545529499470693E1   1.201906559339452E2  
 5.550000000000000E9    -1.549627608764577E1   1.198599496488337E2  
 5.551250000000000E9    -1.553475234174938E1   1.195381779547778E2  
 5.552500000000000E9    -1.556742473960994E1   1.192278890087785E2  
 5.553750000000000E9    -1.559393019711718E1   1.189138936961824E2  
 5.555000000000000E9    -1.561529075699628E1   1.185718913507026E2  
 5.556250000000000E9    -1.563173887952256E1   1.181937243904968E2  
 5.557500000000000E9    -1.564696983757883E1   1.177905820413476E2  
 5.558750000000000E9    -1.566246109871354E1   1.173681072707937E2  
 5.560000000000000E9    -1.567777487178850E1   1.169072410684999E2  
 5.561250000000000E9    -1.569869730975437E1   1.164138973765562E2  
 5.562500000000000E9    -1.572253904858826E1   1.158881020981637E2  
 5.563750000000000E9    -1.574904037516351E1   1.153424372072635E2  
 5.565000000000000E9    -1.578646140991899E1   1.147733371713931E2  
 5.566250000000000E9    -1.582587443684063E1   1.142057464245626E2  
 5.567500000000000E9    -1.587171109016416E1   1.136192406410441E2  
 5.568750000000000E9    -1.592710418261034E1   1.130433948632719E2  
 5.570000000000000E9    -1.598595395089376E1   1.124755789398531E2  
 5.571250000000000E9    -1.605008758185437E1   1.119160663091255E2  
 5.572500000000000E9    -1.611901687289860E1   1.113567470791417E2  
 5.573750000000000E9    -1.619047268601025E1   1.108098209567222E2  
 5.575000000000000E9    -1.626467316077655E1   1.102815942985240E2  
 5.576250000000000E9    -1.634363377751775E1   1.097702222171393E2  
 5.577500000000000E9    -1.641882450299295E1   1.093240511232563E2  
 5.578750000000000E9    -1.649310418318308E1   1.089294942567419E2  
 5.580000000000000E9    -1.656209391521119E1   1.085517882661716E2  
 5.581250000000000E9    -1.662135115915964E1   1.081718341645447E2  
 5.582500000000000E9    -1.667497813848307E1   1.078476736973611E2  
 5.583750000000000E9    -1.672534914826512E1   1.074813414675883E2  
 5.585000000000000E9    -1.676958211862870E1   1.070913386929938E2  
 5.586250000000000E9    -1.680934472494639E1   1.067116057258378E2  
 5.587500000000000E9    -1.685305582446600E1   1.063269886880829E2  
 5.588750000000000E9    -1.689231483067639E1   1.059197799349166E2  
 5.590000000000000E9    -1.693056050032281E1   1.054923657635578E2  
 5.591250000000000E9    -1.697531753299154E1   1.050692026599333E2  
 5.592500000000000E9    -1.701658864906565E1   1.046274638007150E2  
 5.593750000000000E9    -1.706031147472997E1   1.041660158838765E2  
 5.595000000000000E9    -1.710697383467795E1   1.036768349440641E2  
 5.596250000000000E9    -1.715390485891264E1   1.031604659175864E2  
 5.597500000000000E9    -1.720666948643353E1   1.026374382417631E2  
 5.598750000000000E9    -1.726208286271256E1   1.020966854640629E2  
 5.600000000000000E9    -1.732179158195178E1   1.015068613280003E2  
 5.601250000000000E9    -1.738417448900573E1   1.009233196346560E2  
 5.602500000000000E9    -1.745171642427082E1   1.003097048612062E2  
 5.603750000000000E9    -1.752506352076744E1   9.972121934341715E1  
 5.605000000000000E9    -1.759916616040480E1   9.913220596394413E1  
 5.606250000000000E9    -1.767239125990555E1   9.856189001907583E1  
 5.607500000000000E9    -1.773922060795784E1   9.797208298283181E1  
 5.608750000000000E9    -1.780514084737115E1   9.741206000506112E1  
 5.610000000000000E9    -1.787120537788936E1   9.684750702151892E1  
 5.611250000000000E9    -1.793324380946237E1   9.627707064545572E1  
 5.612500000000000E9    -1.799281839837250E1   9.571710220877189E1  
 5.613750000000000E9    -1.805559722675966E1   9.515834197338519E1  
 5.615000000000000E9    -1.811652346228089E1   9.462115100026897E1  
 5.616250000000000E9    -1.818131967726418E1   9.409916536512043E1  
 5.617500000000000E9    -1.823971243801598E1   9.359543222991755E1  
 5.618750000000000E9    -1.830430381676370E1   9.311673438871873E1  
 5.620000000000000E9    -1.835966889696707E1   9.265299374157594E1  
 5.621250000000000E9    -1.841884265105298E1   9.220890256248313E1  
 5.622500000000000E9    -1.847140426098473E1   9.173166838533381E1  
 5.623750000000000E9    -1.853032490246601E1   9.126899340981194E1  
 5.625000000000000E9    -1.859073761600912E1   9.077627513222608E1  
 5.626250000000000E9    -1.864357934145760E1   9.026198267597999E1  
 5.627500000000000E9    -1.870021375640775E1   8.972867327380679E1  
 5.628750000000000E9    -1.875289649388655E1   8.915180454787408E1  
 5.630000000000000E9    -1.881452380912580E1   8.853921565551750E1  
 5.631250000000000E9    -1.888078098585801E1   8.788222400384582E1  
 5.632500000000000E9    -1.894974923814642E1   8.722004215254434E1  
 5.633750000000000E9    -1.902701331291697E1   8.655351725153943E1  
 5.635000000000000E9    -1.910308154556592E1   8.587964537067069E1  
 5.636250000000000E9    -1.917917865062772E1   8.525070953964374E1  
 5.637500000000000E9    -1.925121289809390E1   8.463920654969986E1  
 5.638750000000000E9    -1.931808111340813E1   8.405710052175650E1  
 5.640000000000000E9    -1.938026778809883E1   8.348528149365919E1  
 5.641250000000000E9    -1.943115290382356E1   8.290709809898944E1  
 5.642500000000000E9    -1.947443450855898E1   8.231829180173943E1  
 5.643750000000000E9    -1.951126400270399E1   8.167155398566466E1  
 5.645000000000000E9    -1.955057532828737E1   8.097962276149282E1  
 5.646250000000000E9    -1.959263949246564E1   8.023609795456342E1  
 5.647500000000000E9    -1.963727662407156E1   7.950418687813209E1  
 5.648750000000000E9    -1.969259672614204E1   7.874483454417023E1  
 5.650000000000000E9    -1.974416667847317E1   7.801127605728807E1  
 5.651250000000000E9    -1.980522640308485E1   7.723592615643823E1  
 5.652500000000000E9    -1.987461557413928E1   7.644396716901375E1  
 5.653750000000000E9    -1.994910030053351E1   7.568986718324486E1  
 5.655000000000000E9    -2.002880847380373E1   7.495040027012445E1  
 5.656250000000000E9    -2.011132028826245E1   7.428333022975929E1  
 5.657500000000000E9    -2.019150324019912E1   7.360605574842639E1  
 5.658750000000000E9    -2.026482712725255E1   7.293530587767920E1  
 5.660000000000000E9    -2.034243404810886E1   7.224875047293374E1  
 5.661250000000000E9    -2.041504467187320E1   7.157376173580416E1  
 5.662500000000000E9    -2.048701798712484E1   7.086787805846335E1  
 5.663750000000000E9    -2.055950053820915E1   7.014389658913086E1  
 5.665000000000000E9    -2.063153247230575E1   6.940190084247172E1  
 5.666250000000000E9    -2.070320732717177E1   6.867325000761910E1  
 5.667500000000000E9    -2.077419024272592E1   6.795824269802908E1  
 5.668750000000000E9    -2.083798417700642E1   6.727188037307583E1  
 5.670000000000000E9    -2.090456855543800E1   6.663098452335260E1  
 5.671250000000000E9    -2.095868175050588E1   6.600476506879434E1  
 5.672500000000000E9    -2.101107902912087E1   6.541209433532458E1  
 5.673750000000000E9    -2.106092913518489E1   6.477561738466173E1  
 5.675000000000000E9    -2.111428541690851E1   6.418813792210251E1  
 5.676250000000000E9    -2.116199208632882E1   6.360446207504207E1  
 5.677500000000000E9    -2.121584603288247E1   6.299635865202391E1  
 5.678750000000000E9    -2.127389364207508E1   6.241320387033979E1  
 5.680000000000000E9    -2.133728653116706E1   6.188207690671340E1  
 5.681250000000000E9    -2.140299592746827E1   6.135549065559339E1  
 5.682500000000000E9    -2.146509155457967E1   6.084578205265132E1  
 5.683750000000000E9    -2.151577683303909E1   6.035471750481469E1  
 5.685000000000000E9    -2.155760355848682E1   5.987104440042684E1  
 5.686250000000000E9    -2.159409189352950E1   5.933941765137170E1  
 5.687500000000000E9    -2.161923360570179E1   5.874121481583470E1  
 5.688750000000000E9    -2.164204775311569E1   5.805760228789972E1  
 5.690000000000000E9    -2.166273302552550E1   5.732252808475906E1  
 5.691250000000000E9    -2.168103526343408E1   5.643946481277402E1  
 5.692500000000000E9    -2.170798466191110E1   5.556781401705078E1  
 5.693750000000000E9    -2.173963362516289E1   5.466567811127486E1  
 5.695000000000000E9    -2.176266372335032E1   5.377728213970485E1  
 5.696250000000000E9    -2.177324493853571E1   5.281552612928979E1  
 5.697500000000000E9    -2.179056872019467E1   5.179586545952856E1  
 5.698750000000000E9    -2.181600290712024E1   5.082259946015262E1  
 5.700000000000000E9    -2.183991145344169E1   4.989986359192361E1  
 5.701250000000000E9    -2.186226855710671E1   4.902386664348661E1  
 5.702500000000000E9    -2.188025801268194E1   4.819600153713987E1  
 5.703750000000000E9    -2.189936273142311E1   4.741062850891660E1  
 5.705000000000000E9    -2.191609839307618E1   4.668271857982150E1  
 5.706250000000000E9    -2.192331302092383E1   4.594371163798790E1  
 5.707500000000000E9    -2.192794816039407E1   4.519953587516699E1  
 5.708750000000000E9    -2.193933044790007E1   4.442247672629147E1  
 5.710000000000000E9    -2.195039327087425E1   4.365237820696100E1  
 5.711250000000000E9    -2.196540337917594E1   4.279146302345750E1  
 5.712500000000000E9    -2.198141378175588E1   4.192282321607453E1  
 5.713750000000000E9    -2.200663387213913E1   4.100015240167853E1  
 5.715000000000000E9    -2.204244784398448E1   4.004049215583981E1  
 5.716250000000000E9    -2.208215707114504E1   3.909924505959774E1  
 5.717500000000000E9    -2.213395130725255E1   3.818908496990886E1  
 5.718750000000000E9    -2.218275713092222E1   3.733508827085461E1  
 5.720000000000000E9    -2.222529466996156E1   3.649739939577916E1  
 5.721250000000000E9    -2.226557727302798E1   3.568342985631614E1  
 5.722500000000000E9    -2.229649956881816E1   3.486799508570475E1  
 5.723750000000000E9    -2.231973388064484E1   3.408821540010415E1  
 5.725000000000000E9    -2.233943596268696E1   3.332448084373682E1  
 5.726250000000000E9    -2.235383306172302E1   3.260916798459513E1  
 5.727500000000000E9    -2.235869312534253E1   3.190418862219680E1  
 5.728750000000000E9    -2.234749185635343E1   3.124947131202849E1  
 5.730000000000000E9    -2.233922482023502E1   3.057381793755798E1  
 5.731250000000000E9    -2.232496591439117E1   2.997008857498872E1  
 5.732500000000000E9    -2.230401939066118E1   2.938867262350365E1  
 5.733750000000000E9    -2.228472513232909E1   2.884434218754326E1  
 5.735000000000000E9    -2.225924624459285E1   2.836166339535283E1  
 5.736250000000000E9    -2.221938965634059E1   2.790264074250436E1  
 5.737500000000000E9    -2.218427715663659E1   2.739991882573818E1  
 5.738750000000000E9    -2.213786074485607E1   2.687466345582334E1  
 5.740000000000000E9    -2.208394708803486E1   2.627219209586043E1  
 5.741250000000000E9    -2.203581482863007E1   2.563596872976777E1  
 5.742500000000000E9    -2.198281448919614E1   2.499048610758377E1  
 5.743750000000000E9    -2.193900796504519E1   2.424736308496447E1  
 5.745000000000000E9    -2.189846921256153E1   2.349868512700753E1  
 5.746250000000000E9    -2.185321307766108E1   2.268407322471594E1  
 5.747500000000000E9    -2.181178421445813E1   2.187510409359833E1  
 5.748750000000000E9    -2.176670384953543E1   2.101944489784506E1  
 5.750000000000000E9    -2.172475452441071E1   2.016407172636500E1  
 5.751250000000000E9    -2.167887770159950E1   1.934877893479657E1  
 5.752500000000000E9    -2.162940813462612E1   1.847988436563168E1  
 5.753750000000000E9    -2.157727722649759E1   1.758777803624119E1  
 5.755000000000000E9    -2.151714097757762E1   1.669519306951499E1  
 5.756250000000000E9    -2.146625702467526E1   1.581555413766210E1  
 5.757500000000000E9    -2.140911018447459E1   1.494675487725873E1  
 5.758750000000000E9    -2.135914769572018E1   1.408735667126445E1  
 5.760000000000000E9    -2.131912889483051E1   1.327279776949377E1  
 5.761250000000000E9    -2.127695998447721E1   1.251911284769088E1  
 5.762500000000000E9    -2.123668641646697E1   1.188537883884414E1  
 5.763750000000000E9    -2.120266681995822E1   1.124595612403986E1  
 5.765000000000000E9    -2.116378994927987E1   1.070415212063281E1  
 5.766250000000000E9    -2.112257234074313E1   1.016739660332206E1  
 5.767500000000000E9    -2.107568667767506E1   9.624557392059437  
 5.768750000000000E9    -2.103051298346714E1   9.084390068516260  
 5.770000000000000E9    -2.097712860131309E1   8.540528967675542  
 5.771250000000000E9    -2.092320703951453E1   7.979527224228457  
 5.772500000000000E9    -2.086486719981391E1   7.430802022437125  
 5.773750000000000E9    -2.080722093122984E1   6.778798530366504  
 5.775000000000000E9    -2.073614717114502E1   6.123632448267284  
 5.776250000000000E9    -2.066288002795348E1   5.407034445352293  
 5.777500000000000E9    -2.059343029235398E1   4.654892436605011  
 5.778750000000000E9    -2.051936917296486E1   3.811597300718094  
 5.780000000000000E9    -2.045094045061449E1   2.942895587271683  
 5.781250000000000E9    -2.038312457119048E1   2.053520952594407  
 5.782500000000000E9    -2.032135359796109E1   1.136705076703917  
 5.783750000000000E9    -2.026390576833085E1   2.929919639842041E-1  
 5.785000000000000E9    -2.020689719980086E1  -5.195740082284456E-1  
 5.786250000000000E9    -2.015255167013385E1  -1.276534301800051  
 5.787500000000000E9    -2.009930023762322E1  -1.968670217849482  
 5.788750000000000E9    -2.004494428405245E1  -2.603313768079680  
 5.790000000000000E9    -1.999371757803730E1  -3.175398348621985  
 5.791250000000000E9    -1.993602496473170E1  -3.729793536601313  
 5.792500000000000E9    -1.988007073563624E1  -4.240838471000619  
 5.793750000000000E9    -1.982177212076914E1  -4.713786889208654  
 5.795000000000000E9    -1.976848022038428E1  -5.197240109271374  
 5.796250000000000E9    -1.971134691705992E1  -5.614946449041622  
 5.797500000000000E9    -1.965159590176919E1  -6.028511377118443  
 5.798750000000000E9    -1.958688888251361E1  -6.466704952590724  
 5.800000000000000E9    -1.951926117866471E1  -6.915241132634511  
 5.801250000000000E9    -1.944794136860332E1  -7.410189452498774  
 5.802500000000000E9    -1.937914164332452E1  -7.932445769432172  
 5.803750000000000E9    -1.930691992945955E1  -8.484536699835655  
 5.805000000000000E9    -1.923680850127120E1  -9.071107238410894  
 5.806250000000000E9    -1.916517953990097E1  -9.666341846157794  
 5.807500000000000E9    -1.909737712005637E1  -1.031357179454341E1  
 5.808750000000000E9    -1.902788873630125E1  -1.095512467746646E1  
 5.810000000000000E9    -1.895949582750885E1  -1.162976771399784E1  
 5.811250000000000E9    -1.889533350080817E1  -1.226006631773632E1  
 5.812500000000000E9    -1.882772785444411E1  -1.286109189127609E1  
 5.813750000000000E9    -1.875951863995928E1  -1.341725146795475E1  
 5.815000000000000E9    -1.868553512845427E1  -1.398797619649766E1  
 5.816250000000000E9    -1.860902064851036E1  -1.453471385719028E1  
 5.817500000000000E9    -1.853461152607894E1  -1.505586154299107E1  
 5.818750000000000E9    -1.845726785577977E1  -1.560395975185939E1  
 5.820000000000000E9    -1.839264982427105E1  -1.611576830262100E1  
 5.821250000000000E9    -1.832143482312467E1  -1.659194427880832E1  
 5.822500000000000E9    -1.825635963527602E1  -1.709514191883380E1  
 5.823750000000000E9    -1.819421130188360E1  -1.755039206493114E1  
 5.825000000000000E9    -1.813296099470281E1  -1.804631237224361E1  
 5.826250000000000E9    -1.807227951559654E1  -1.851900156074486E1  
 5.827500000000000E9    -1.801731041215326E1  -1.901681927024944E1  
 5.828750000000000E9    -1.795924656885736E1  -1.950234597355156E1  
 5.830000000000000E9    -1.790946428120807E1  -2.000654542906266E1  
 5.831250000000000E9    -1.785753201365770E1  -2.051136324294915E1  
 5.832500000000000E9    -1.780354516509700E1  -2.101650467454974E1  
 5.833750000000000E9    -1.775296568242557E1  -2.154125327528710E1  
 5.835000000000000E9    -1.770000288992394E1  -2.206643126993679E1  
 5.836250000000000E9    -1.764768314368635E1  -2.261095577444417E1  
 5.837500000000000E9    -1.759117891732545E1  -2.312159472125971E1  
 5.838750000000000E9    -1.753600757220498E1  -2.364849915507189E1  
 5.840000000000000E9    -1.747524521661932E1  -2.413087183824701E1  
 5.841250000000000E9    -1.740969767605098E1  -2.464694966671527E1  
 5.842500000000000E9    -1.734164739148752E1  -2.512139731070965E1  
 5.843750000000000E9    -1.727469016088104E1  -2.561425332049456E1  
 5.845000000000000E9    -1.720867047253234E1  -2.611212787375769E1  
 5.846250000000000E9    -1.713956322482188E1  -2.660276414024910E1  
 5.847500000000000E9    -1.707132238136587E1  -2.706987067264474E1  
 5.848750000000000E9    -1.700844798698701E1  -2.753085164470339E1  
 5.850000000000000E9    -1.695047222181463E1  -2.797504716566298E1  
 5.851250000000000E9    -1.689303864505943E1  -2.838710329242511E1  
 5.852500000000000E9    -1.683534450511387E1  -2.880605884108494E1  
 5.853750000000000E9    -1.677738471128628E1  -2.921064324865693E1  
 5.855000000000000E9    -1.672568727641295E1  -2.963536726038791E1  
 5.856250000000000E9    -1.667396954256533E1  -3.007691552828340E1  
 5.857500000000000E9    -1.662409435785208E1  -3.052339169966174E1  
 5.858750000000000E9    -1.657797823206262E1  -3.101206757343128E1  
