#  HZ   S   DB   R     50.00 
! Rohde & Schwarz ZVA24 4Ports - Version 3.60 - 1145.1110k28 SN: 101513
! Date: 2019-08-26 13:12:23
! Measurement: S33 
! 
 5.500000000000000E9    -1.346351376303883E1   1.441386109449275E2  
 5.501250000000000E9    -1.347488658191370E1   1.439631497484173E2  
 5.502500000000000E9    -1.348154270574710E1   1.437653637630394E2  
 5.503750000000000E9    -1.348661724232932E1   1.435559218403450E2  
 5.505000000000000E9    -1.348794829271341E1   1.433288122831396E2  
 5.506250000000000E9    -1.349491558280477E1   1.430527182316205E2  
 5.507500000000000E9    -1.351096481816454E1   1.427512592098481E2  
 5.508750000000000E9    -1.353182540461021E1   1.424579751316938E2  
 5.510000000000000E9    -1.355619813174271E1   1.421829320729216E2  
 5.511250000000000E9    -1.358601276080141E1   1.419063348459519E2  
 5.512500000000000E9    -1.361878689677018E1   1.416428436019809E2  
 5.513750000000000E9    -1.365183346960498E1   1.414038272503903E2  
 5.515000000000000E9    -1.368559189179842E1   1.411695642656565E2  
 5.516250000000000E9    -1.371821156111322E1   1.409465092622765E2  
 5.517500000000000E9    -1.374990202085731E1   1.407485370708579E2  
 5.518750000000000E9    -1.377637899565080E1   1.405496100019871E2  
 5.520000000000000E9    -1.380089475079709E1   1.403619632184133E2  
 5.521250000000000E9    -1.381859226372562E1   1.401677679066079E2  
 5.522500000000000E9    -1.383166020602873E1   1.399610880100452E2  
 5.523750000000000E9    -1.383663059996373E1   1.397347605877870E2  
 5.525000000000000E9    -1.384490171176568E1   1.394548665403114E2  
 5.526250000000000E9    -1.385440395203949E1   1.391636576451768E2  
 5.527500000000000E9    -1.386675857069197E1   1.388778734029960E2  
 5.528750000000000E9    -1.388454980018643E1   1.386076316509424E2  
 5.530000000000000E9    -1.389983206097742E1   1.383723540462449E2  
 5.531250000000000E9    -1.390970176893868E1   1.381388934651404E2  
 5.532500000000000E9    -1.392001959855931E1   1.378939362165659E2  
 5.533750000000000E9    -1.393205855243622E1   1.376385781041172E2  
 5.535000000000000E9    -1.394868232255241E1   1.373636412076263E2  
 5.536250000000000E9    -1.397184839162082E1   1.371150068447504E2  
 5.537500000000000E9    -1.399608549416547E1   1.368767783148974E2  
 5.538750000000000E9    -1.402147257775932E1   1.366689916946694E2  
 5.540000000000000E9    -1.404507379910979E1   1.364481332534871E2  
 5.541250000000000E9    -1.406956946725330E1   1.362445466501016E2  
 5.542500000000000E9    -1.409323729888232E1   1.360386355312876E2  
 5.543750000000000E9    -1.411418584929758E1   1.358205919415428E2  
 5.545000000000000E9    -1.414561655140788E1   1.354058266270019E2  
 5.546250000000000E9    -1.416842494629879E1   1.351711628763942E2  
 5.547500000000000E9    -1.418876950121876E1   1.349041080398765E2  
 5.548750000000000E9    -1.420910374101626E1   1.346445975786936E2  
 5.550000000000000E9    -1.422824240863433E1   1.343620480649025E2  
 5.551250000000000E9    -1.424730149554833E1   1.340779352238911E2  
 5.552500000000000E9    -1.426591484603283E1   1.338005423736034E2  
 5.553750000000000E9    -1.427760522501097E1   1.335327069506805E2  
 5.555000000000000E9    -1.428458110222026E1   1.332449433732264E2  
 5.556250000000000E9    -1.429216132457978E1   1.329530497895881E2  
 5.557500000000000E9    -1.429663075062217E1   1.326289699066138E2  
 5.558750000000000E9    -1.430217368353545E1   1.323145505674663E2  
 5.560000000000000E9    -1.430619233268942E1   1.319671551501338E2  
 5.561250000000000E9    -1.431477913613908E1   1.316080329973019E2  
 5.562500000000000E9    -1.432559837270505E1   1.312279602946128E2  
 5.563750000000000E9    -1.433711482636654E1   1.308347093754006E2  
 5.565000000000000E9    -1.435792514258683E1   1.304375700890624E2  
 5.566250000000000E9    -1.437916529986867E1   1.300387688682598E2  
 5.567500000000000E9    -1.440665617413148E1   1.296257605809671E2  
 5.568750000000000E9    -1.443939921952506E1   1.292194850633344E2  
 5.570000000000000E9    -1.447572901648828E1   1.288285844190919E2  
 5.571250000000000E9    -1.451648223664752E1   1.284246303240238E2  
 5.572500000000000E9    -1.455928415814270E1   1.280197749546685E2  
 5.573750000000000E9    -1.460464863875123E1   1.276179303230390E2  
 5.575000000000000E9    -1.465363238676638E1   1.271993300597459E2  
 5.576250000000000E9    -1.471043593297741E1   1.267956800881022E2  
 5.577500000000000E9    -1.476588414770357E1   1.264264619897162E2  
 5.578750000000000E9    -1.482181559796491E1   1.261467906698530E2  
 5.580000000000000E9    -1.487412495858382E1   1.258777925271518E2  
 5.581250000000000E9    -1.491842611793657E1   1.256388843511503E2  
 5.582500000000000E9    -1.495386851018447E1   1.254191629535689E2  
 5.583750000000000E9    -1.498498402214349E1   1.252110009616694E2  
 5.585000000000000E9    -1.501000971392626E1   1.249742403893769E2  
 5.586250000000000E9    -1.503136466595753E1   1.247495980024087E2  
 5.587500000000000E9    -1.504938215191839E1   1.245167669844312E2  
 5.588750000000000E9    -1.506774636068239E1   1.242721718701265E2  
 5.590000000000000E9    -1.508181536197272E1   1.240132301935326E2  
 5.591250000000000E9    -1.509794418534950E1   1.237663973774290E2  
 5.592500000000000E9    -1.511425559360514E1   1.235058321092420E2  
 5.593750000000000E9    -1.513005600937355E1   1.232272776942216E2  
 5.595000000000000E9    -1.514955746650908E1   1.229352407789581E2  
 5.596250000000000E9    -1.516886743975382E1   1.226154510136929E2  
 5.597500000000000E9    -1.518751956080406E1   1.222876327918762E2  
 5.598750000000000E9    -1.521169792937965E1   1.219345847545146E2  
 5.600000000000000E9    -1.523752998561571E1   1.215500681059045E2  
 5.601250000000000E9    -1.526542379236610E1   1.211544646301928E2  
 5.602500000000000E9    -1.529849866986136E1   1.207293526690186E2  
 5.603750000000000E9    -1.533317553370376E1   1.202814259262835E2  
 5.605000000000000E9    -1.536848381554022E1   1.198204077846070E2  
 5.606250000000000E9    -1.540410012336749E1   1.193334995060381E2  
 5.607500000000000E9    -1.544248646953976E1   1.188276883916588E2  
 5.608750000000000E9    -1.548269523174209E1   1.183112714091103E2  
 5.610000000000000E9    -1.552941767429879E1   1.178266096886480E2  
 5.611250000000000E9    -1.557244393568773E1   1.173292188898958E2  
 5.612500000000000E9    -1.561984111058755E1   1.168743658322097E2  
 5.613750000000000E9    -1.566633955582779E1   1.164252257730535E2  
 5.615000000000000E9    -1.571034692183807E1   1.160027836771074E2  
 5.616250000000000E9    -1.575886321840857E1   1.156200493170197E2  
 5.617500000000000E9    -1.580482617383785E1   1.152494535992778E2  
 5.618750000000000E9    -1.585384353631462E1   1.149432206187355E2  
 5.620000000000000E9    -1.589463998614362E1   1.146609850246444E2  
 5.621250000000000E9    -1.593512917517011E1   1.144258302473616E2  
 5.622500000000000E9    -1.597380379142137E1   1.141726329426119E2  
 5.623750000000000E9    -1.601113390519075E1   1.139409899068213E2  
 5.625000000000000E9    -1.604861252237759E1   1.137133918824567E2  
 5.626250000000000E9    -1.608196597109138E1   1.134900230793535E2  
 5.627500000000000E9    -1.611526629705996E1   1.132542252694902E2  
 5.628750000000000E9    -1.614244466430855E1   1.129901311046111E2  
 5.630000000000000E9    -1.616996722726116E1   1.127207119650820E2  
 5.631250000000000E9    -1.619724044591698E1   1.123710962066723E2  
 5.632500000000000E9    -1.622825787352794E1   1.119802358594925E2  
 5.633750000000000E9    -1.626325742572042E1   1.115956487300096E2  
 5.635000000000000E9    -1.629742997119833E1   1.111853670302759E2  
 5.636250000000000E9    -1.633229250842365E1   1.107533190926472E2  
 5.637500000000000E9    -1.636473535825652E1   1.103162919152291E2  
 5.638750000000000E9    -1.639751578317974E1   1.098938845424890E2  
 5.640000000000000E9    -1.642948749357399E1   1.094746687105066E2  
 5.641250000000000E9    -1.645780225017302E1   1.090512099631656E2  
 5.642500000000000E9    -1.647982694904504E1   1.086461484993320E2  
 5.643750000000000E9    -1.649248045534676E1   1.082092696079029E2  
 5.645000000000000E9    -1.650287051847960E1   1.077472594371939E2  
 5.646250000000000E9    -1.651897601662961E1   1.072083288232586E2  
 5.647500000000000E9    -1.653885484166488E1   1.066759463260483E2  
 5.648750000000000E9    -1.656496104174139E1   1.061561584614247E2  
 5.650000000000000E9    -1.659634259630463E1   1.056295552725031E2  
 5.651250000000000E9    -1.663450588602841E1   1.051295678702235E2  
 5.652500000000000E9    -1.667749290291760E1   1.046542955445850E2  
 5.653750000000000E9    -1.672431768399662E1   1.042235416830698E2  
 5.655000000000000E9    -1.677418730750976E1   1.037923159004182E2  
 5.656250000000000E9    -1.682210947586943E1   1.034285275844143E2  
 5.657500000000000E9    -1.687407671486941E1   1.030707070812144E2  
 5.658750000000000E9    -1.691659255787769E1   1.027041494258757E2  
 5.660000000000000E9    -1.695668264996780E1   1.023345939906215E2  
 5.661250000000000E9    -1.699482869038725E1   1.019252432555051E2  
 5.662500000000000E9    -1.703093935219374E1   1.014932010624455E2  
 5.663750000000000E9    -1.707109489714779E1   1.010161108090336E2  
 5.665000000000000E9    -1.711076845278252E1   1.005276553114480E2  
 5.666250000000000E9    -1.715137995062782E1   1.000125773673678E2  
 5.667500000000000E9    -1.719031785899882E1   9.953215442878178E1  
 5.668750000000000E9    -1.722858400086522E1   9.903264034859177E1  
 5.670000000000000E9    -1.726409729616249E1   9.857105362301489E1  
 5.671250000000000E9    -1.729624975336564E1   9.808314866599127E1  
 5.672500000000000E9    -1.732436169805116E1   9.760928548453217E1  
 5.673750000000000E9    -1.735793029695390E1   9.711677352149913E1  
 5.675000000000000E9    -1.739202840452403E1   9.665004325892518E1  
 5.676250000000000E9    -1.742486337689597E1   9.619357935277409E1  
 5.677500000000000E9    -1.746958294790854E1   9.575295142924485E1  
 5.678750000000000E9    -1.751979582756107E1   9.536986465357504E1  
 5.680000000000000E9    -1.757541806863858E1   9.504940178051923E1  
 5.681250000000000E9    -1.762891666972170E1   9.482276566442049E1  
 5.682500000000000E9    -1.767280973280611E1   9.465539724350029E1  
 5.683750000000000E9    -1.770352409574837E1   9.451679803874366E1  
 5.685000000000000E9    -1.772605099879051E1   9.430933113687435E1  
 5.686250000000000E9    -1.774520739605648E1   9.402761700380907E1  
 5.687500000000000E9    -1.776228515651264E1   9.371154526624585E1  
 5.688750000000000E9    -1.777870353015785E1   9.332467687998440E1  
 5.690000000000000E9    -1.779882875971802E1   9.287384550216366E1  
 5.691250000000000E9    -1.782430324966368E1   9.237933184246285E1  
 5.692500000000000E9    -1.785228673768314E1   9.185622501049232E1  
 5.693750000000000E9    -1.788099724276182E1   9.137057546730395E1  
 5.695000000000000E9    -1.790604698618079E1   9.083400059570737E1  
 5.696250000000000E9    -1.792552944007107E1   9.030168627526237E1  
 5.697500000000000E9    -1.793715627651104E1   8.972601020493076E1  
 5.698750000000000E9    -1.794917912186963E1   8.915084936780745E1  
 5.700000000000000E9    -1.795529801322543E1   8.857405793885367E1  
 5.701250000000000E9    -1.796028329162988E1   8.799517978153226E1  
 5.702500000000000E9    -1.795949319933640E1   8.738554766728377E1  
 5.703750000000000E9    -1.795721047176669E1   8.677328059510073E1  
 5.705000000000000E9    -1.795453991215304E1   8.615675539116290E1  
 5.706250000000000E9    -1.795946774212990E1   8.552049427809170E1  
 5.707500000000000E9    -1.796333711791094E1   8.487316792437430E1  
 5.708750000000000E9    -1.798054345399308E1   8.421709364735300E1  
 5.710000000000000E9    -1.799945529433476E1   8.357521512160241E1  
 5.711250000000000E9    -1.803127318872088E1   8.295543041706878E1  
 5.712500000000000E9    -1.806753811831007E1   8.236228407572700E1  
 5.713750000000000E9    -1.811280424919121E1   8.178818518518362E1  
 5.715000000000000E9    -1.816601445956094E1   8.123158542610710E1  
 5.716250000000000E9    -1.822040428595295E1   8.070860290671168E1  
 5.717500000000000E9    -1.827597996206308E1   8.025593966833399E1  
 5.718750000000000E9    -1.833064156318635E1   7.980776988282204E1  
 5.720000000000000E9    -1.837919252292786E1   7.937075638849133E1  
 5.721250000000000E9    -1.842219009249548E1   7.893824402945452E1  
 5.722500000000000E9    -1.846069870309859E1   7.849699622040173E1  
 5.723750000000000E9    -1.848877079685238E1   7.804700836156691E1  
 5.725000000000000E9    -1.851107357466814E1   7.759036037668629E1  
 5.726250000000000E9    -1.852413939386439E1   7.712521287722021E1  
 5.727500000000000E9    -1.852716832923578E1   7.660472801991726E1  
 5.728750000000000E9    -1.852576162850992E1   7.607499968079860E1  
 5.730000000000000E9    -1.851947217684120E1   7.551422632569444E1  
 5.731250000000000E9    -1.851599095917647E1   7.494920792593265E1  
 5.732500000000000E9    -1.850849696893961E1   7.437451678802586E1  
 5.733750000000000E9    -1.850260898508686E1   7.382295305277506E1  
 5.735000000000000E9    -1.849484078477821E1   7.332766032650112E1  
 5.736250000000000E9    -1.848036391653501E1   7.285524937796465E1  
 5.737500000000000E9    -1.846913363754062E1   7.239538690237539E1  
 5.738750000000000E9    -1.844681975204417E1   7.189902607380269E1  
 5.740000000000000E9    -1.842877882595388E1   7.135204933722446E1  
 5.741250000000000E9    -1.841211855459996E1   7.082091334622383E1  
 5.742500000000000E9    -1.839632876040331E1   7.023368241033546E1  
 5.743750000000000E9    -1.839235276683365E1   6.960892336190182E1  
 5.745000000000000E9    -1.838775936101864E1   6.895641720125093E1  
 5.746250000000000E9    -1.838414108618606E1   6.829769056812484E1  
 5.747500000000000E9    -1.838493926616281E1   6.764598949005588E1  
 5.748750000000000E9    -1.839029730063687E1   6.690671215908530E1  
 5.750000000000000E9    -1.839526602733138E1   6.622187074277015E1  
 5.751250000000000E9    -1.839588417950816E1   6.550956272893491E1  
 5.752500000000000E9    -1.839503382686201E1   6.478732365118468E1  
 5.753750000000000E9    -1.839046261381677E1   6.402994297149367E1  
 5.755000000000000E9    -1.837749911976936E1   6.321065244037776E1  
 5.756250000000000E9    -1.836669678516846E1   6.236690128388322E1  
 5.757500000000000E9    -1.835680973360083E1   6.150635846621706E1  
 5.758750000000000E9    -1.835281189988787E1   6.065540882925863E1  
 5.760000000000000E9    -1.835321911776900E1   5.981637332739337E1  
 5.761250000000000E9    -1.835606863878879E1   5.907090628692389E1  
 5.762500000000000E9    -1.835356391036308E1   5.841415335687160E1  
 5.763750000000000E9    -1.835182322376584E1   5.781167409567313E1  
 5.765000000000000E9    -1.834194729789179E1   5.723759276311677E1  
 5.766250000000000E9    -1.832589725902276E1   5.667258057931847E1  
 5.767500000000000E9    -1.830918385650751E1   5.609586325091104E1  
 5.768750000000000E9    -1.829037089880359E1   5.552553586117637E1  
 5.770000000000000E9    -1.827319902392570E1   5.494824644465628E1  
 5.771250000000000E9    -1.825742004127825E1   5.435739189248617E1  
 5.772500000000000E9    -1.824186550853548E1   5.368864722100143E1  
 5.773750000000000E9    -1.822635055957985E1   5.301285703976865E1  
 5.775000000000000E9    -1.821095668453046E1   5.230670060668129E1  
 5.776250000000000E9    -1.819993727085063E1   5.159049422314873E1  
 5.777500000000000E9    -1.819309995277565E1   5.081371999971479E1  
 5.778750000000000E9    -1.818509622133676E1   4.997726986868927E1  
 5.780000000000000E9    -1.817987622876336E1   4.913568910395206E1  
 5.781250000000000E9    -1.817364770725708E1   4.826497473587371E1  
 5.782500000000000E9    -1.817437474335734E1   4.736380135558132E1  
 5.783750000000000E9    -1.816977828299030E1   4.649303454551698E1  
 5.785000000000000E9    -1.816661250246863E1   4.563663428217581E1  
 5.786250000000000E9    -1.816027041357406E1   4.478398172297549E1  
 5.787500000000000E9    -1.815856850534712E1   4.396573240953836E1  
 5.788750000000000E9    -1.814788803214610E1   4.321919458095752E1  
 5.790000000000000E9    -1.813864527242189E1   4.250325408973979E1  
 5.791250000000000E9    -1.812555817225838E1   4.183882895974471E1  
 5.792500000000000E9    -1.810776628841191E1   4.120492805998207E1  
 5.793750000000000E9    -1.808977361692236E1   4.063668678488835E1  
 5.795000000000000E9    -1.806983775565485E1   4.008648176438015E1  
 5.796250000000000E9    -1.804158881837788E1   3.955777930842446E1  
 5.797500000000000E9    -1.801212518425280E1   3.906514781766998E1  
 5.798750000000000E9    -1.798098103063641E1   3.856249119646977E1  
 5.800000000000000E9    -1.794977802379982E1   3.802721808256560E1  
 5.801250000000000E9    -1.791745108029427E1   3.746441212642203E1  
 5.802500000000000E9    -1.788415194021268E1   3.688892342649683E1  
 5.803750000000000E9    -1.784821752114819E1   3.627342261949514E1  
 5.805000000000000E9    -1.781068915078696E1   3.561324521775106E1  
 5.806250000000000E9    -1.777915545614495E1   3.489040520180258E1  
 5.807500000000000E9    -1.775161137406577E1   3.414043848071790E1  
 5.808750000000000E9    -1.772404691088111E1   3.339267040189905E1  
 5.810000000000000E9    -1.769680862141317E1   3.262483467136107E1  
 5.811250000000000E9    -1.767077124789809E1   3.184875344978582E1  
 5.812500000000000E9    -1.764246258264497E1   3.107119591471324E1  
 5.813750000000000E9    -1.760995251771517E1   3.030319421615592E1  
 5.815000000000000E9    -1.757711901701393E1   2.953097789657675E1  
 5.816250000000000E9    -1.754064384329895E1   2.878939028895698E1  
 5.817500000000000E9    -1.750262350660299E1   2.805322552659992E1  
 5.818750000000000E9    -1.746355412807745E1   2.732331076392285E1  
 5.820000000000000E9    -1.742691577059360E1   2.665831346052865E1  
 5.821250000000000E9    -1.738544578317358E1   2.601255103538651E1  
 5.822500000000000E9    -1.734896988746014E1   2.538797826123196E1  
 5.823750000000000E9    -1.730743390349748E1   2.479067029243727E1  
 5.825000000000000E9    -1.726882054004884E1   2.416563727382190E1  
 5.826250000000000E9    -1.722762660754461E1   2.357108967277895E1  
 5.827500000000000E9    -1.719118119890148E1   2.297173557222719E1  
 5.828750000000000E9    -1.715534121122342E1   2.235636447189402E1  
 5.830000000000000E9    -1.712527944476718E1   2.173035627364752E1  
 5.831250000000000E9    -1.709373626747299E1   2.106247147609168E1  
 5.832500000000000E9    -1.706068112226599E1   2.039709104164727E1  
 5.833750000000000E9    -1.703829864441235E1   1.969363696357029E1  
 5.835000000000000E9    -1.701330916106964E1   1.896886409773505E1  
 5.836250000000000E9    -1.699314457840158E1   1.824336679982644E1  
 5.837500000000000E9    -1.696697286457459E1   1.750604466704603E1  
 5.838750000000000E9    -1.694538665678205E1   1.674646247120016E1  
 5.840000000000000E9    -1.692252469110275E1   1.601103766734783E1  
 5.841250000000000E9    -1.689380421758170E1   1.525141095793027E1  
 5.842500000000000E9    -1.686349276504232E1   1.453292751005465E1  
 5.843750000000000E9    -1.683476258244244E1   1.382827301762081E1  
 5.845000000000000E9    -1.680107408598332E1   1.312468616458287E1  
 5.846250000000000E9    -1.676657996745349E1   1.244065694196863E1  
 5.847500000000000E9    -1.672689138653856E1   1.177705509677391E1  
 5.848750000000000E9    -1.669145923078039E1   1.115512527636215E1  
 5.850000000000000E9    -1.665150651170159E1   1.056949846365928E1  
 5.851250000000000E9    -1.661675219974102E1   9.995235471215045  
 5.852500000000000E9    -1.658031342206050E1   9.490772793562632  
 5.853750000000000E9    -1.654736539381118E1   8.979080216930333  
 5.855000000000000E9    -1.650788147118889E1   8.475392827318023  
 5.856250000000000E9    -1.647393559341421E1   7.992765873078948  
 5.857500000000000E9    -1.644100088449703E1   7.498291959799246  
