#  HZ   S   DB   R     50.00 
! Rohde & Schwarz ZVA24 4Ports - Version 3.60 - 1145.1110k28 SN: 101513
! Date: 2019-08-26 13:18:47
! Measurement: S33 
! 
 5.500000000000000E9    -1.415551300411839E1   1.714775967538006E2  
 5.501250000000000E9    -1.419478689609780E1   1.712044304479064E2  
 5.502500000000000E9    -1.423684158108595E1   1.709314392413651E2  
 5.503750000000000E9    -1.428474553401453E1   1.706525165356326E2  
 5.505000000000000E9    -1.433114490625133E1   1.704334048564189E2  
 5.506250000000000E9    -1.438303732589755E1   1.701844476100141E2  
 5.507500000000000E9    -1.443866777306632E1   1.699414377313594E2  
 5.508750000000000E9    -1.449612858010725E1   1.697186343855736E2  
 5.510000000000000E9    -1.455652991725621E1   1.694674320212911E2  
 5.511250000000000E9    -1.462381740923571E1   1.692450058825007E2  
 5.512500000000000E9    -1.469756753053539E1   1.690222597981654E2  
 5.513750000000000E9    -1.477123095614217E1   1.688312763788849E2  
 5.515000000000000E9    -1.485091343557723E1   1.686406001315397E2  
 5.516250000000000E9    -1.492915421822728E1   1.684859809972998E2  
 5.517500000000000E9    -1.500788963402419E1   1.683616817304888E2  
 5.518750000000000E9    -1.507995504685397E1   1.682194196249915E2  
 5.520000000000000E9    -1.515014992803378E1   1.681032156730371E2  
 5.521250000000000E9    -1.521470122607624E1   1.679685313552965E2  
 5.522500000000000E9    -1.527860783024957E1   1.678642708971948E2  
 5.523750000000000E9    -1.533450701430648E1   1.677419507734470E2  
 5.525000000000000E9    -1.538619420012288E1   1.676369456846809E2  
 5.526250000000000E9    -1.543040664662685E1   1.675332632322104E2  
 5.527500000000000E9    -1.546887481446906E1   1.673930771154624E2  
 5.528750000000000E9    -1.550152301308244E1   1.672409094988923E2  
 5.530000000000000E9    -1.553495411527638E1   1.670613362156527E2  
 5.531250000000000E9    -1.556370981669187E1   1.668690031264218E2  
 5.532500000000000E9    -1.559539070996088E1   1.666697383214047E2  
 5.533750000000000E9    -1.562459378597656E1   1.664281521916426E2  
 5.535000000000000E9    -1.565809436229335E1   1.661808117810866E2  
 5.536250000000000E9    -1.569612359851074E1   1.658937082487779E2  
 5.537500000000000E9    -1.574222164112321E1   1.655896332653225E2  
 5.538750000000000E9    -1.579667473619318E1   1.652995703198037E2  
 5.540000000000000E9    -1.585923108952350E1   1.649991972332389E2  
 5.541250000000000E9    -1.592547109263053E1   1.647074143958381E2  
 5.542500000000000E9    -1.599637205905754E1   1.644283070978323E2  
 5.543750000000000E9    -1.607097159765082E1   1.641323134456056E2  
 5.545000000000000E9    -1.615600818364558E1   1.638338227061156E2  
 5.546250000000000E9    -1.624358680890506E1   1.635440312410918E2  
 5.547500000000000E9    -1.633416125625201E1   1.632847806318994E2  
 5.548750000000000E9    -1.642295676771774E1   1.630235311513146E2  
 5.550000000000000E9    -1.651067232058770E1   1.627340262069033E2  
 5.551250000000000E9    -1.659892093126163E1   1.624462809104176E2  
 5.552500000000000E9    -1.669107394040879E1   1.621780240791924E2  
 5.553750000000000E9    -1.678503155740564E1   1.619486210832544E2  
 5.555000000000000E9    -1.687521828591376E1   1.617258460270268E2  
 5.556250000000000E9    -1.696261482874025E1   1.615603384968145E2  
 5.557500000000000E9    -1.704632200849031E1   1.613922421154059E2  
 5.558750000000000E9    -1.711867523909968E1   1.612603084033084E2  
 5.560000000000000E9    -1.719220436611650E1   1.611357526401362E2  
 5.561250000000000E9    -1.726166253765312E1   1.610128989977054E2  
 5.562500000000000E9    -1.733014764048632E1   1.609039005529828E2  
 5.563750000000000E9    -1.739374344102724E1   1.607751127945136E2  
 5.565000000000000E9    -1.746633783573496E1   1.606522024863659E2  
 5.566250000000000E9    -1.753628216140081E1   1.605283676812529E2  
 5.567500000000000E9    -1.761165161996994E1   1.604029412929714E2  
 5.568750000000000E9    -1.768838182358211E1   1.602769168630959E2  
 5.570000000000000E9    -1.776720024222637E1   1.601653517857763E2  
 5.571250000000000E9    -1.785108115760555E1   1.600465649324353E2  
 5.572500000000000E9    -1.793821126541213E1   1.599089225962214E2  
 5.573750000000000E9    -1.802419868124595E1   1.597865129370772E2  
 5.575000000000000E9    -1.810958214595014E1   1.596114074237582E2  
 5.576250000000000E9    -1.819856549234165E1   1.594180609663123E2  
 5.577500000000000E9    -1.828799061223351E1   1.591953284884168E2  
 5.578750000000000E9    -1.838034370926395E1   1.589617502195484E2  
 5.580000000000000E9    -1.847513527555534E1   1.587289989270450E2  
 5.581250000000000E9    -1.857105006658667E1   1.585086655423211E2  
 5.582500000000000E9    -1.865709645117256E1   1.583358528600420E2  
 5.583750000000000E9    -1.873474692368887E1   1.581447587244413E2  
 5.585000000000000E9    -1.880580111572909E1   1.579299777613016E2  
 5.586250000000000E9    -1.887142113069375E1   1.576878925945692E2  
 5.587500000000000E9    -1.893212320068814E1   1.574413582890051E2  
 5.588750000000000E9    -1.899720030582926E1   1.571300409590592E2  
 5.590000000000000E9    -1.906213028015826E1   1.568326201906232E2  
 5.591250000000000E9    -1.913314120238331E1   1.565328142220433E2  
 5.592500000000000E9    -1.920603251858383E1   1.562295189932585E2  
 5.593750000000000E9    -1.928571556637164E1   1.559316319421800E2  
 5.595000000000000E9    -1.937309354763774E1   1.556795518646093E2  
 5.596250000000000E9    -1.946066670821233E1   1.553792885694576E2  
 5.597500000000000E9    -1.955307220939562E1   1.550995343798636E2  
 5.598750000000000E9    -1.965667035775944E1   1.548035747524766E2  
 5.600000000000000E9    -1.976702264809597E1   1.545085791932763E2  
 5.601250000000000E9    -1.988661632270331E1   1.541927570200504E2  
 5.602500000000000E9    -2.001082639671296E1   1.538751490936955E2  
 5.603750000000000E9    -2.014542443829584E1   1.535391632622617E2  
 5.605000000000000E9    -2.028385258086935E1   1.531802647011965E2  
 5.606250000000000E9    -2.042908792928620E1   1.527990550519760E2  
 5.607500000000000E9    -2.057483455478738E1   1.524288934044532E2  
 5.608750000000000E9    -2.072620810032974E1   1.520901296611803E2  
 5.610000000000000E9    -2.087331059032480E1   1.517629342073746E2  
 5.611250000000000E9    -2.101803751617647E1   1.513864268367290E2  
 5.612500000000000E9    -2.116324792921390E1   1.510607114451439E2  
 5.613750000000000E9    -2.130418300107874E1   1.507138800592663E2  
 5.615000000000000E9    -2.144243493806232E1   1.503975612359163E2  
 5.616250000000000E9    -2.158333111267353E1   1.501339181580422E2  
 5.617500000000000E9    -2.171865862819065E1   1.498896972618802E2  
 5.618750000000000E9    -2.184823707873985E1   1.497380416528640E2  
 5.620000000000000E9    -2.197470367577259E1   1.495455875650006E2  
 5.621250000000000E9    -2.210403276345146E1   1.494146279466837E2  
 5.622500000000000E9    -2.224210801202795E1   1.493264181347556E2  
 5.623750000000000E9    -2.237763518064658E1   1.493162246436307E2  
 5.625000000000000E9    -2.251012035990351E1   1.493932312219883E2  
 5.626250000000000E9    -2.264070209214587E1   1.494545844080701E2  
 5.627500000000000E9    -2.276606695753667E1   1.495588603884182E2  
 5.628750000000000E9    -2.289004461919062E1   1.496050435911705E2  
 5.630000000000000E9    -2.301008021843639E1   1.496469324911974E2  
 5.631250000000000E9    -2.312570948638223E1   1.495941277574642E2  
 5.632500000000000E9    -2.324323520542944E1   1.494096239713424E2  
 5.633750000000000E9    -2.337413850320052E1   1.491389602282733E2  
 5.635000000000000E9    -2.351266792174290E1   1.487478184217762E2  
 5.636250000000000E9    -2.367597739767722E1   1.482909042940286E2  
 5.637500000000000E9    -2.384837373510068E1   1.477878445177420E2  
 5.638750000000000E9    -2.402169507916778E1   1.473607709013628E2  
 5.640000000000000E9    -2.419281911108061E1   1.469352400158489E2  
 5.641250000000000E9    -2.435591795549270E1   1.464891054542748E2  
 5.642500000000000E9    -2.450417595471000E1   1.460687679157166E2  
 5.643750000000000E9    -2.463464143799219E1   1.455986967148808E2  
 5.645000000000000E9    -2.475124234184269E1   1.450472057363027E2  
 5.646250000000000E9    -2.485606339663008E1   1.443391003368946E2  
 5.647500000000000E9    -2.495602014588978E1   1.435660478859640E2  
 5.648750000000000E9    -2.506857187513612E1   1.426636528510701E2  
 5.650000000000000E9    -2.518885776711102E1   1.417061387388136E2  
 5.651250000000000E9    -2.533026313549795E1   1.407275691689577E2  
 5.652500000000000E9    -2.548010701573351E1   1.397199227672327E2  
 5.653750000000000E9    -2.564623697208623E1   1.387317578224084E2  
 5.655000000000000E9    -2.583753625939234E1   1.376824234440983E2  
 5.656250000000000E9    -2.605247469017304E1   1.366913076399654E2  
 5.657500000000000E9    -2.628898805036130E1   1.356396694032738E2  
 5.658750000000000E9    -2.655057037714986E1   1.345719621361421E2  
 5.660000000000000E9    -2.683131563531141E1   1.335945856018188E2  
 5.661250000000000E9    -2.712975184944526E1   1.326516279637430E2  
 5.662500000000000E9    -2.741874755343394E1   1.317401575688940E2  
 5.663750000000000E9    -2.773119899561078E1   1.307487346638882E2  
 5.665000000000000E9    -2.803413996824356E1   1.296803044485426E2  
 5.666250000000000E9    -2.833598998976203E1   1.285621039627755E2  
 5.667500000000000E9    -2.863011208633952E1   1.273007392676720E2  
 5.668750000000000E9    -2.891389290609470E1   1.259582725172510E2  
 5.670000000000000E9    -2.919097608257227E1   1.245835799576283E2  
 5.671250000000000E9    -2.945794030869206E1   1.229461483501808E2  
 5.672500000000000E9    -2.971100256210901E1   1.212466081194136E2  
 5.673750000000000E9    -2.998080318707252E1   1.193913392483756E2  
 5.675000000000000E9    -3.022944806639084E1   1.175676728061198E2  
 5.676250000000000E9    -3.047171167029383E1   1.156454208643507E2  
 5.677500000000000E9    -3.075477067956474E1   1.136793175328215E2  
 5.678750000000000E9    -3.103354911748304E1   1.117113108558853E2  
 5.680000000000000E9    -3.134917581700524E1   1.097568217025718E2  
 5.681250000000000E9    -3.171597251771947E1   1.078078098206586E2  
 5.682500000000000E9    -3.211149814599298E1   1.060328931022345E2  
 5.683750000000000E9    -3.253477651425465E1   1.044888158414650E2  
 5.685000000000000E9    -3.294050805803219E1   1.031730806518146E2  
 5.686250000000000E9    -3.334940811664680E1   1.017573072298306E2  
 5.687500000000000E9    -3.371832368885378E1   1.000912167451811E2  
 5.688750000000000E9    -3.407921046370381E1   9.824518075398117E1  
 5.690000000000000E9    -3.442183399355298E1   9.600954985422774E1  
 5.691250000000000E9    -3.469698925344247E1   9.342875772382254E1  
 5.692500000000000E9    -3.491805707726216E1   9.036944307768626E1  
 5.693750000000000E9    -3.506403324846102E1   8.665656720398170E1  
 5.695000000000000E9    -3.515773137885131E1   8.246808763813850E1  
 5.696250000000000E9    -3.515601550758105E1   7.794424537811895E1  
 5.697500000000000E9    -3.508774172453722E1   7.294632004339400E1  
 5.698750000000000E9    -3.495034836260291E1   6.808274342462445E1  
 5.700000000000000E9    -3.476773794817110E1   6.335446034536673E1  
 5.701250000000000E9    -3.454080686639753E1   5.878207637493059E1  
 5.702500000000000E9    -3.426843885843037E1   5.459585051218831E1  
 5.703750000000000E9    -3.399165184290831E1   5.090026678451780E1  
 5.705000000000000E9    -3.369078600275036E1   4.764016412868880E1  
 5.706250000000000E9    -3.336866034859531E1   4.451166570170225E1  
 5.707500000000000E9    -3.304768906297234E1   4.168390681469530E1  
 5.708750000000000E9    -3.277523065398192E1   3.892998080572875E1  
 5.710000000000000E9    -3.248858138670827E1   3.648925974744498E1  
 5.711250000000000E9    -3.220641368525536E1   3.411099478433781E1  
 5.712500000000000E9    -3.192874095602851E1   3.181816126129200E1  
 5.713750000000000E9    -3.162486207481063E1   2.953749150741839E1  
 5.715000000000000E9    -3.130418487546925E1   2.721005176531823E1  
 5.716250000000000E9    -3.095218404414895E1   2.490713731837225E1  
 5.717500000000000E9    -3.058007605399460E1   2.240572263041791E1  
 5.718750000000000E9    -3.020649023942017E1   1.971440006289611E1  
 5.720000000000000E9    -2.983823679837429E1   1.706354468930162E1  
 5.721250000000000E9    -2.947986975163364E1   1.440853867278248E1  
 5.722500000000000E9    -2.911821379880983E1   1.191308988793626E1  
 5.723750000000000E9    -2.876402715187171E1   9.519673358056867  
 5.725000000000000E9    -2.842886987454992E1   7.340747432931059  
 5.726250000000000E9    -2.809991041468080E1   5.301139351191710  
 5.727500000000000E9    -2.777336256144677E1   3.454220635110692  
 5.728750000000000E9    -2.746802688183839E1   1.821483722025148  
 5.730000000000000E9    -2.717873992335564E1   4.265558411429187E-1  
 5.731250000000000E9    -2.690429106928061E1  -8.753588128524957E-1  
 5.732500000000000E9    -2.663830408346627E1  -1.921645178247275  
 5.733750000000000E9    -2.638755488346759E1  -2.983062807371557  
 5.735000000000000E9    -2.615295582087503E1  -4.017692243583089  
 5.736250000000000E9    -2.592789890182790E1  -4.988123363579788  
 5.737500000000000E9    -2.572931522824314E1  -6.048853559198946  
 5.738750000000000E9    -2.555694965267269E1  -7.033514088479670  
 5.740000000000000E9    -2.539472255045412E1  -7.954143657160979  
 5.741250000000000E9    -2.524375058780220E1  -8.857652087690170  
 5.742500000000000E9    -2.509699884438669E1  -9.711458987769081  
 5.743750000000000E9    -2.494810008422187E1  -1.064193131302077E1  
 5.745000000000000E9    -2.480250787672193E1  -1.148967334061267E1  
 5.746250000000000E9    -2.465803977706445E1  -1.229177773182732E1  
 5.747500000000000E9    -2.451477239556861E1  -1.306296770968651E1  
 5.748750000000000E9    -2.435701618610580E1  -1.378142623129295E1  
 5.750000000000000E9    -2.420126692581948E1  -1.444020651281720E1  
 5.751250000000000E9    -2.403684439188611E1  -1.502717847034769E1  
 5.752500000000000E9    -2.386800959824873E1  -1.557486268972239E1  
 5.753750000000000E9    -2.368998414388364E1  -1.598530353910884E1  
 5.755000000000000E9    -2.350291860814458E1  -1.632787873089233E1  
 5.756250000000000E9    -2.331821309152141E1  -1.661316815887487E1  
 5.757500000000000E9    -2.312039498947015E1  -1.681479447137973E1  
 5.758750000000000E9    -2.292033365142837E1  -1.701830329984622E1  
 5.760000000000000E9    -2.271852503841618E1  -1.722192027491170E1  
 5.761250000000000E9    -2.252335082359836E1  -1.740874868295670E1  
 5.762500000000000E9    -2.233910336581238E1  -1.760091420527524E1  
 5.763750000000000E9    -2.216947811166120E1  -1.787677159507549E1  
 5.765000000000000E9    -2.200147968990360E1  -1.814133243408231E1  
 5.766250000000000E9    -2.184651081546805E1  -1.839960253672569E1  
 5.767500000000000E9    -2.169535778097058E1  -1.866438462700673E1  
 5.768750000000000E9    -2.155109434739930E1  -1.892917397240178E1  
 5.770000000000000E9    -2.140636572689105E1  -1.928033767751492E1  
 5.771250000000000E9    -2.126657746107525E1  -1.972087143797814E1  
 5.772500000000000E9    -2.112575310369142E1  -2.016680697089027E1  
 5.773750000000000E9    -2.099426085688430E1  -2.067290537931423E1  
 5.775000000000000E9    -2.085833066946765E1  -2.119750320527108E1  
 5.776250000000000E9    -2.073380346628816E1  -2.170152205894867E1  
 5.777500000000000E9    -2.061329440736835E1  -2.221474419486964E1  
 5.778750000000000E9    -2.048224918470135E1  -2.271651063813830E1  
 5.780000000000000E9    -2.035152928380008E1  -2.315233149080880E1  
 5.781250000000000E9    -2.021723849586070E1  -2.354302603484023E1  
 5.782500000000000E9    -2.006724706863857E1  -2.393886647058812E1  
 5.783750000000000E9    -1.992220012213036E1  -2.426983032188711E1  
 5.785000000000000E9    -1.977181275672273E1  -2.459132736391824E1  
 5.786250000000000E9    -1.962136711609070E1  -2.486614306819218E1  
 5.787500000000000E9    -1.947205788356768E1  -2.515283729303650E1  
 5.788750000000000E9    -1.932292339744320E1  -2.539816288938260E1  
 5.790000000000000E9    -1.917913606507889E1  -2.567723142004886E1  
 5.791250000000000E9    -1.903744489928040E1  -2.595597863797362E1  
 5.792500000000000E9    -1.890481228850456E1  -2.626476468855216E1  
 5.793750000000000E9    -1.878302597103786E1  -2.654569302946197E1  
 5.795000000000000E9    -1.867368561745606E1  -2.685818832179021E1  
 5.796250000000000E9    -1.856913403331800E1  -2.716163739303342E1  
 5.797500000000000E9    -1.847117667169556E1  -2.744123740100722E1  
 5.798750000000000E9    -1.837926492314788E1  -2.774845872458051E1  
 5.800000000000000E9    -1.829062574275489E1  -2.810514330907212E1  
 5.801250000000000E9    -1.820530877322051E1  -2.843448369190708E1  
 5.802500000000000E9    -1.812039545425640E1  -2.878995292277686E1  
 5.803750000000000E9    -1.803864620398040E1  -2.914508017550558E1  
 5.805000000000000E9    -1.795491296889714E1  -2.950355296996860E1  
 5.806250000000000E9    -1.787453128158348E1  -2.985510088221374E1  
 5.807500000000000E9    -1.778801739301332E1  -3.017042707666361E1  
 5.808750000000000E9    -1.769922167783835E1  -3.047745683766413E1  
 5.810000000000000E9    -1.760555962442695E1  -3.074510202547697E1  
 5.811250000000000E9    -1.751013340834494E1  -3.102996368156290E1  
 5.812500000000000E9    -1.741634786665565E1  -3.128074562625781E1  
 5.813750000000000E9    -1.732023750427726E1  -3.147621352636074E1  
 5.815000000000000E9    -1.722385326859240E1  -3.166085460914710E1  
 5.816250000000000E9    -1.712511478797476E1  -3.177404763993150E1  
 5.817500000000000E9    -1.702306647530521E1  -3.184359396867173E1  
 5.818750000000000E9    -1.691809056293640E1  -3.193025433350752E1  
 5.820000000000000E9    -1.681645897752122E1  -3.201843028279732E1  
 5.821250000000000E9    -1.671204586264249E1  -3.209784468499775E1  
 5.822500000000000E9    -1.661166475726514E1  -3.221223323722411E1  
 5.823750000000000E9    -1.651939710970071E1  -3.236134386564081E1  
 5.825000000000000E9    -1.642810166304573E1  -3.251388622851205E1  
 5.826250000000000E9    -1.634168845198343E1  -3.268824413878317E1  
 5.827500000000000E9    -1.626328645665919E1  -3.289901392311692E1  
 5.828750000000000E9    -1.618671098485594E1  -3.311867619893238E1  
 5.830000000000000E9    -1.611845375241413E1  -3.334533900096117E1  
 5.831250000000000E9    -1.604341856721803E1  -3.355794610617301E1  
 5.832500000000000E9    -1.596709726208943E1  -3.375699292512234E1  
 5.833750000000000E9    -1.588704869700309E1  -3.400825389659163E1  
 5.835000000000000E9    -1.580008038347811E1  -3.425916072506713E1  
 5.836250000000000E9    -1.571128569530855E1  -3.454298967004392E1  
 5.837500000000000E9    -1.562057102239516E1  -3.485006874093685E1  
 5.838750000000000E9    -1.552695665044934E1  -3.517438295284930E1  
 5.840000000000000E9    -1.543698777158327E1  -3.549369221550983E1  
 5.841250000000000E9    -1.534419089837939E1  -3.579193230178311E1  
 5.842500000000000E9    -1.525235832997204E1  -3.607544155012523E1  
 5.843750000000000E9    -1.516105897813747E1  -3.633446179313728E1  
 5.845000000000000E9    -1.507077419094657E1  -3.657631337926573E1  
 5.846250000000000E9    -1.497902086269756E1  -3.680541318391486E1  
 5.847500000000000E9    -1.488761234504680E1  -3.700524745212517E1  
 5.848750000000000E9    -1.480164108536902E1  -3.718632947873033E1  
 5.850000000000000E9    -1.471709986368537E1  -3.736052504179668E1  
 5.851250000000000E9    -1.463949631617093E1  -3.752314355691812E1  
 5.852500000000000E9    -1.456523391179229E1  -3.767791613006778E1  
 5.853750000000000E9    -1.449179548996917E1  -3.781457605330260E1  
 5.855000000000000E9    -1.442310404006090E1  -3.795817012485873E1  
 5.856250000000000E9    -1.435608651820616E1  -3.810697676018823E1  
 5.857500000000000E9    -1.429014858881490E1  -3.825151669691037E1  
 5.858750000000000E9    -1.422072690222467E1  -3.842182097583621E1  
