#  HZ   S   DB   R     50.00 
! Rohde & Schwarz ZVA24 4Ports - Version 3.60 - 1145.1110k28 SN: 101513
! Date: 2019-08-26 14:43:36
! Measurement: S33 
! 
 5.500000000000000E9    -1.508814071848387E1   1.637647354243244E2  
 5.501250000000000E9    -1.512351400905433E1   1.636436357236945E2  
 5.502500000000000E9    -1.516899181119732E1   1.635009757107200E2  
 5.503750000000000E9    -1.522454120997333E1   1.634064417915122E2  
 5.505000000000000E9    -1.528260482364096E1   1.634062107188844E2  
 5.506250000000000E9    -1.534558117867692E1   1.634640036334262E2  
 5.507500000000000E9    -1.540840356630004E1   1.635754141351414E2  
 5.508750000000000E9    -1.546486195302212E1   1.637466197705643E2  
 5.510000000000000E9    -1.551359110075845E1   1.639216207740497E2  
 5.511250000000000E9    -1.555825735955285E1   1.641112076255526E2  
 5.512500000000000E9    -1.560197604459599E1   1.642674382565512E2  
 5.513750000000000E9    -1.564498120796860E1   1.644102964965795E2  
 5.515000000000000E9    -1.569104385969861E1   1.645392106896858E2  
 5.516250000000000E9    -1.573639910974179E1   1.646925341140006E2  
 5.517500000000000E9    -1.578269231845187E1   1.648431854988375E2  
 5.518750000000000E9    -1.582040708143852E1   1.650077130400069E2  
 5.520000000000000E9    -1.585208244006589E1   1.651873016968673E2  
 5.521250000000000E9    -1.587704877728991E1   1.653369369350740E2  
 5.522500000000000E9    -1.589469940877387E1   1.654716613864231E2  
 5.523750000000000E9    -1.590093473889865E1   1.655402797621388E2  
 5.525000000000000E9    -1.590523888644104E1   1.655737958820561E2  
 5.526250000000000E9    -1.590858943488192E1   1.655538734053882E2  
 5.527500000000000E9    -1.591168443843967E1   1.654898915400905E2  
 5.528750000000000E9    -1.591893337294638E1   1.654127394079143E2  
 5.530000000000000E9    -1.592614255823385E1   1.653309469785517E2  
 5.531250000000000E9    -1.593700344899532E1   1.652472047191794E2  
 5.532500000000000E9    -1.595227236000971E1   1.651693174558933E2  
 5.533750000000000E9    -1.596797324280231E1   1.651018043911177E2  
 5.535000000000000E9    -1.598585792545224E1   1.650641823501966E2  
 5.536250000000000E9    -1.600918675707122E1   1.650352389380015E2  
 5.537500000000000E9    -1.603374996042523E1   1.649977824030794E2  
 5.538750000000000E9    -1.606363720287349E1   1.650143421190199E2  
 5.540000000000000E9    -1.609742857464944E1   1.650245650665661E2  
 5.541250000000000E9    -1.612999833952628E1   1.650600233030248E2  
 5.542500000000000E9    -1.616703103705416E1   1.651058591990360E2  
 5.543750000000000E9    -1.620237043032340E1   1.651640198651264E2  
 5.545000000000000E9    -1.624320755148250E1   1.652071087208334E2  
 5.546250000000000E9    -1.628280693808033E1   1.652723056836180E2  
 5.547500000000000E9    -1.632169759171748E1   1.653325577499693E2  
 5.548750000000000E9    -1.635810457666535E1   1.654135680238807E2  
 5.550000000000000E9    -1.638895738809043E1   1.654614312643280E2  
 5.551250000000000E9    -1.641410527304118E1   1.655308119643456E2  
 5.552500000000000E9    -1.643389509988083E1   1.655996564511349E2  
 5.553750000000000E9    -1.644366652808816E1   1.656391112327351E2  
 5.555000000000000E9    -1.644572491654905E1   1.656288017195640E2  
 5.556250000000000E9    -1.644752007656590E1   1.655790858575117E2  
 5.557500000000000E9    -1.644564363875115E1   1.654886999077505E2  
 5.558750000000000E9    -1.644044446447602E1   1.653934740034475E2  
 5.560000000000000E9    -1.643770919927865E1   1.652623257568072E2  
 5.561250000000000E9    -1.643989690940669E1   1.651347830213768E2  
 5.562500000000000E9    -1.644298238542135E1   1.650040864017488E2  
 5.563750000000000E9    -1.644320720584829E1   1.648644099646735E2  
 5.565000000000000E9    -1.644767855276696E1   1.647369678853437E2  
 5.566250000000000E9    -1.644816182407768E1   1.646173713038838E2  
 5.567500000000000E9    -1.645191955996286E1   1.645005426653256E2  
 5.568750000000000E9    -1.646480980454433E1   1.643828309979601E2  
 5.570000000000000E9    -1.648166730904552E1   1.642328530605327E2  
 5.571250000000000E9    -1.650533413448427E1   1.640602460182326E2  
 5.572500000000000E9    -1.653311011264435E1   1.638924708900703E2  
 5.573750000000000E9    -1.656463320331773E1   1.638413766771143E2  
 5.575000000000000E9    -1.659676039126235E1   1.637706732232315E2  
 5.576250000000000E9    -1.662323327107402E1   1.637073616018925E2  
 5.577500000000000E9    -1.663217890889436E1   1.636225165911098E2  
 5.578750000000000E9    -1.664393584598379E1   1.635398049989282E2  
 5.580000000000000E9    -1.665322517288426E1   1.633351912336750E2  
 5.581250000000000E9    -1.665494502415146E1   1.631035716487239E2  
 5.582500000000000E9    -1.665963736913445E1   1.628699566841488E2  
 5.583750000000000E9    -1.667044876966947E1   1.626100297933990E2  
 5.585000000000000E9    -1.668413009856014E1   1.623464951421710E2  
 5.586250000000000E9    -1.668894514862074E1   1.620891021372192E2  
 5.587500000000000E9    -1.668922486016964E1   1.618586200978919E2  
 5.588750000000000E9    -1.668951396753809E1   1.615974905134526E2  
 5.590000000000000E9    -1.668557230516161E1   1.612940923007669E2  
 5.591250000000000E9    -1.667931363376794E1   1.610159607079556E2  
 5.592500000000000E9    -1.667825039680631E1   1.606802136195414E2  
 5.593750000000000E9    -1.668085390422861E1   1.603526213377261E2  
 5.595000000000000E9    -1.668934593934239E1   1.600356079786198E2  
 5.596250000000000E9    -1.669986435058405E1   1.597165419225875E2  
 5.597500000000000E9    -1.671635165305059E1   1.593817739424720E2  
 5.598750000000000E9    -1.673477161290257E1   1.590393259321252E2  
 5.600000000000000E9    -1.676016089890214E1   1.586735523895854E2  
 5.601250000000000E9    -1.679004422128391E1   1.582768667778104E2  
 5.602500000000000E9    -1.682901326867156E1   1.578515361773316E2  
 5.603750000000000E9    -1.687469729561284E1   1.573994700348119E2  
 5.605000000000000E9    -1.692486037437770E1   1.569597946424647E2  
 5.606250000000000E9    -1.697905847836344E1   1.565366460992707E2  
 5.607500000000000E9    -1.703627005778237E1   1.561275077639635E2  
 5.608750000000000E9    -1.709537649436501E1   1.557574662933629E2  
 5.610000000000000E9    -1.714987806152075E1   1.554113074501448E2  
 5.611250000000000E9    -1.719920108393086E1   1.550317026167788E2  
 5.612500000000000E9    -1.724114208112595E1   1.546636646694071E2  
 5.613750000000000E9    -1.727946065604282E1   1.542642523407393E2  
 5.615000000000000E9    -1.730909872165565E1   1.538360016820263E2  
 5.616250000000000E9    -1.733610728929919E1   1.534605228990146E2  
 5.617500000000000E9    -1.736088082917152E1   1.530608383043678E2  
 5.618750000000000E9    -1.738053987879495E1   1.527015840482981E2  
 5.620000000000000E9    -1.739581089760202E1   1.523096854479475E2  
 5.621250000000000E9    -1.740998712624308E1   1.519205424728015E2  
 5.622500000000000E9    -1.742160111788143E1   1.514936208810022E2  
 5.623750000000000E9    -1.743828405603097E1   1.510573862298112E2  
 5.625000000000000E9    -1.745831731567432E1   1.506007280929074E2  
 5.626250000000000E9    -1.748327543142176E1   1.501143945946936E2  
 5.627500000000000E9    -1.751530741500503E1   1.496154543374805E2  
 5.628750000000000E9    -1.755329715366428E1   1.490855787643961E2  
 5.630000000000000E9    -1.760042672007704E1   1.485983987352650E2  
 5.631250000000000E9    -1.765572789386132E1   1.480728615451307E2  
 5.632500000000000E9    -1.772001532726924E1   1.475470681359804E2  
 5.633750000000000E9    -1.778648683994021E1   1.470340701245305E2  
 5.635000000000000E9    -1.785757418206866E1   1.464751239127238E2  
 5.636250000000000E9    -1.792956947669477E1   1.459322101832039E2  
 5.637500000000000E9    -1.800555259680130E1   1.453417970066303E2  
 5.638750000000000E9    -1.807913608826506E1   1.447494783536502E2  
 5.640000000000000E9    -1.815137605008936E1   1.441403895997373E2  
 5.641250000000000E9    -1.822187812240321E1   1.435368611904452E2  
 5.642500000000000E9    -1.828450013078874E1   1.429378491745490E2  
 5.643750000000000E9    -1.833524817654381E1   1.423235410495900E2  
 5.645000000000000E9    -1.838162483443314E1   1.417116008310126E2  
 5.646250000000000E9    -1.842441648049197E1   1.410605396385182E2  
 5.647500000000000E9    -1.845935910379557E1   1.404028570527316E2  
 5.648750000000000E9    -1.849576411400737E1   1.397324741350300E2  
 5.650000000000000E9    -1.852599739668811E1   1.390213548550487E2  
 5.651250000000000E9    -1.855989337935443E1   1.383272731751630E2  
 5.652500000000000E9    -1.859583272227462E1   1.375964069552879E2  
 5.653750000000000E9    -1.863251281563965E1   1.368612836188100E2  
 5.655000000000000E9    -1.867679980404142E1   1.361026807325505E2  
 5.656250000000000E9    -1.872203586424899E1   1.353321731100033E2  
 5.657500000000000E9    -1.877764199918177E1   1.345044318241200E2  
 5.658750000000000E9    -1.884255329586349E1   1.336416886166430E2  
 5.660000000000000E9    -1.891870842693575E1   1.327810009204378E2  
 5.661250000000000E9    -1.900780124048257E1   1.319144906430978E2  
 5.662500000000000E9    -1.910416182329746E1   1.310618820153310E2  
 5.663750000000000E9    -1.921256013981387E1   1.301967329125689E2  
 5.665000000000000E9    -1.932370438648536E1   1.293963448686329E2  
 5.666250000000000E9    -1.942815259150293E1   1.286282982964872E2  
 5.667500000000000E9    -1.952559111744052E1   1.278424203682097E2  
 5.668750000000000E9    -1.961417726761092E1   1.270088378173737E2  
 5.670000000000000E9    -1.969475748421682E1   1.261376368328762E2  
 5.671250000000000E9    -1.977346618160654E1   1.251914888769147E2  
 5.672500000000000E9    -1.985329022045886E1   1.242551274435383E2  
 5.673750000000000E9    -1.993681686470423E1   1.233257606436367E2  
 5.675000000000000E9    -2.001388436998179E1   1.224463821764339E2  
 5.676250000000000E9    -2.008409065803987E1   1.215812466507677E2  
 5.677500000000000E9    -2.014992441249326E1   1.207773177175229E2  
 5.678750000000000E9    -2.021491229687466E1   1.199656580173349E2  
 5.680000000000000E9    -2.027026000067393E1   1.191350808172428E2  
 5.681250000000000E9    -2.033202813404364E1   1.182849442716062E2  
 5.682500000000000E9    -2.039352235900694E1   1.174357772439777E2  
 5.683750000000000E9    -2.045525548125563E1   1.165709498523450E2  
 5.685000000000000E9    -2.051627456012551E1   1.156592352515944E2  
 5.686250000000000E9    -2.058642288785013E1   1.146928991562661E2  
 5.687500000000000E9    -2.065759069007530E1   1.136770931340817E2  
 5.688750000000000E9    -2.073223387122927E1   1.125426237565667E2  
 5.690000000000000E9    -2.081116151381367E1   1.113625313542899E2  
 5.691250000000000E9    -2.090052936225353E1   1.101107073152256E2  
 5.692500000000000E9    -2.099810812251774E1   1.087465493135690E2  
 5.693750000000000E9    -2.110063247957554E1   1.073002509765919E2  
 5.695000000000000E9    -2.121176306919835E1   1.058161721322086E2  
 5.696250000000000E9    -2.132136795982717E1   1.042475521249685E2  
 5.697500000000000E9    -2.142166756073617E1   1.026580735979836E2  
 5.698750000000000E9    -2.152838169183798E1   1.010207722658925E2  
 5.700000000000000E9    -2.162693607512560E1   9.935190129998070E1  
 5.701250000000000E9    -2.172486413393849E1   9.771495642040507E1  
 5.702500000000000E9    -2.181303293681234E1   9.612878391942454E1  
 5.703750000000000E9    -2.189452450696444E1   9.460740223885902E1  
 5.705000000000000E9    -2.197350662567416E1   9.315779379009275E1  
 5.706250000000000E9    -2.204680186310790E1   9.173987197837650E1  
 5.707500000000000E9    -2.210755611497479E1   9.038672153506515E1  
 5.708750000000000E9    -2.217746062025043E1   8.905616579302080E1  
 5.710000000000000E9    -2.223709106470242E1   8.777647680302968E1  
 5.711250000000000E9    -2.229731693034085E1   8.657242124273112E1  
 5.712500000000000E9    -2.234838748120237E1   8.535300668718188E1  
 5.713750000000000E9    -2.240029748844613E1   8.409649873615487E1  
 5.715000000000000E9    -2.244656902991743E1   8.270795698361611E1  
 5.716250000000000E9    -2.249608893242846E1   8.117960079250837E1  
 5.717500000000000E9    -2.255609692415515E1   7.961102627933047E1  
 5.718750000000000E9    -2.262508201206693E1   7.794427369414929E1  
 5.720000000000000E9    -2.269357098250237E1   7.623590768048729E1  
 5.721250000000000E9    -2.276285932675290E1   7.448049580050403E1  
 5.722500000000000E9    -2.283100068666137E1   7.259731507186875E1  
 5.723750000000000E9    -2.288560445820685E1   7.070966759770985E1  
 5.725000000000000E9    -2.293606990526451E1   6.875663540566036E1  
 5.726250000000000E9    -2.298498450002533E1   6.671265364026121E1  
 5.727500000000000E9    -2.302527790794813E1   6.467007711666687E1  
 5.728750000000000E9    -2.305680685225419E1   6.267331656403928E1  
 5.730000000000000E9    -2.308273977764457E1   6.068799895162940E1  
 5.731250000000000E9    -2.311036073677014E1   5.883426655201563E1  
 5.732500000000000E9    -2.312192074528121E1   5.703188541998119E1  
 5.733750000000000E9    -2.312811519930680E1   5.532974510567628E1  
 5.735000000000000E9    -2.312597955542520E1   5.371228775595974E1  
 5.736250000000000E9    -2.311655896522504E1   5.213840549149087E1  
 5.737500000000000E9    -2.310925967644598E1   5.056427291274009E1  
 5.738750000000000E9    -2.309207773812256E1   4.905023165027133E1  
 5.740000000000000E9    -2.308110742012931E1   4.752804127969667E1  
 5.741250000000000E9    -2.306599236269355E1   4.601281956129058E1  
 5.742500000000000E9    -2.304777739565417E1   4.452282140594532E1  
 5.743750000000000E9    -2.302187277603094E1   4.294960322692950E1  
 5.745000000000000E9    -2.299793936523273E1   4.140938487652088E1  
 5.746250000000000E9    -2.295919097922214E1   3.980264527436142E1  
 5.747500000000000E9    -2.291060281569230E1   3.818462340307868E1  
 5.748750000000000E9    -2.285040728954665E1   3.641369531837233E1  
 5.750000000000000E9    -2.278236637787498E1   3.467040754816782E1  
 5.751250000000000E9    -2.269805202208667E1   3.288497054331653E1  
 5.752500000000000E9    -2.260793966047706E1   3.106783125517352E1  
 5.753750000000000E9    -2.251254628322684E1   2.917456622045182E1  
 5.755000000000000E9    -2.240175559807826E1   2.733455832213912E1  
 5.756250000000000E9    -2.229477888435456E1   2.555659239922003E1  
 5.757500000000000E9    -2.216925753947139E1   2.387638134612924E1  
 5.758750000000000E9    -2.204458815546454E1   2.222084692659160E1  
 5.760000000000000E9    -2.192143823591650E1   2.060491301283708E1  
 5.761250000000000E9    -2.179958694802324E1   1.904973353654691E1  
 5.762500000000000E9    -2.169188932650117E1   1.761158760139963E1  
 5.763750000000000E9    -2.160075553904674E1   1.621935659886019E1  
 5.765000000000000E9    -2.151359505493571E1   1.494487308504791E1  
 5.766250000000000E9    -2.144653870207672E1   1.374964575076961E1  
 5.767500000000000E9    -2.137658278880655E1   1.265649208606522E1  
 5.768750000000000E9    -2.131115935131793E1   1.160845438858510E1  
 5.770000000000000E9    -2.124099485148537E1   1.057545736910176E1  
 5.771250000000000E9    -2.117443315577431E1   9.487940326010838  
 5.772500000000000E9    -2.110990279865074E1   8.398732803967047  
 5.773750000000000E9    -2.105587623980977E1   7.281340392073637  
 5.775000000000000E9    -2.098657638795407E1   6.221901339553309  
 5.776250000000000E9    -2.090902789674061E1   5.108540712605960  
 5.777500000000000E9    -2.083603828506776E1   3.957809590319869  
 5.778750000000000E9    -2.075522703943567E1   2.736772650361553  
 5.780000000000000E9    -2.066688661131567E1   1.533782403174915  
 5.781250000000000E9    -2.057411155507558E1   3.494189642924705E-1  
 5.782500000000000E9    -2.047134702467477E1  -8.931454200910163E-1  
 5.783750000000000E9    -2.036211924685758E1  -2.086453587489184  
 5.785000000000000E9    -2.025571533292023E1  -3.266867291048452  
 5.786250000000000E9    -2.014587325229520E1  -4.371760839575280  
 5.787500000000000E9    -2.003812794072833E1  -5.444139486912627  
 5.788750000000000E9    -1.992367073404652E1  -6.447716241328826  
 5.790000000000000E9    -1.981609773307459E1  -7.416937344437613  
 5.791250000000000E9    -1.971091518952150E1  -8.369775016592028  
 5.792500000000000E9    -1.962241804893206E1  -9.242527589648503  
 5.793750000000000E9    -1.953532496560494E1  -1.001836585516446E1  
 5.795000000000000E9    -1.945107051956155E1  -1.077020552924426E1  
 5.796250000000000E9    -1.936787475536363E1  -1.151413019684207E1  
 5.797500000000000E9    -1.928490860005079E1  -1.227012134366105E1  
 5.798750000000000E9    -1.921136107379025E1  -1.309036008214448E1  
 5.800000000000000E9    -1.915054913405384E1  -1.394167632168779E1  
 5.801250000000000E9    -1.910181991086042E1  -1.477190916702198E1  
 5.802500000000000E9    -1.906124514375749E1  -1.558196126915624E1  
 5.803750000000000E9    -1.901680165039531E1  -1.629779880229869E1  
 5.805000000000000E9    -1.896422977857042E1  -1.698854756233946E1  
 5.806250000000000E9    -1.890559980958679E1  -1.766352964393523E1  
 5.807500000000000E9    -1.883815007487508E1  -1.833698678818228E1  
 5.808750000000000E9    -1.876061002009866E1  -1.901485879728355E1  
 5.810000000000000E9    -1.867548217659446E1  -1.970096681746415E1  
 5.811250000000000E9    -1.858732525297006E1  -2.038995553920258E1  
 5.812500000000000E9    -1.849520640175774E1  -2.105401362344511E1  
 5.813750000000000E9    -1.840187380338164E1  -2.169505597071697E1  
 5.815000000000000E9    -1.830692482171860E1  -2.229497151978014E1  
 5.816250000000000E9    -1.821168210243474E1  -2.286806174198922E1  
 5.817500000000000E9    -1.811560530204397E1  -2.338684436809353E1  
 5.818750000000000E9    -1.801777835647364E1  -2.387831855288885E1  
 5.820000000000000E9    -1.792579072075766E1  -2.436820226421397E1  
 5.821250000000000E9    -1.783247398694874E1  -2.483879136353399E1  
 5.822500000000000E9    -1.774870697697364E1  -2.534133199708512E1  
 5.823750000000000E9    -1.767510168393925E1  -2.582440240261526E1  
 5.825000000000000E9    -1.760784428090495E1  -2.634425175859302E1  
 5.826250000000000E9    -1.754525447046985E1  -2.681050453993823E1  
 5.827500000000000E9    -1.748993178855591E1  -2.728517299497967E1  
 5.828750000000000E9    -1.743447189916214E1  -2.778554159491175E1  
 5.830000000000000E9    -1.738790434584579E1  -2.832071151441443E1  
 5.831250000000000E9    -1.733811155858087E1  -2.886386245597737E1  
 5.832500000000000E9    -1.728891851624517E1  -2.939842731054156E1  
 5.833750000000000E9    -1.724005912646066E1  -2.997896246846360E1  
 5.835000000000000E9    -1.718940950476219E1  -3.054085379571514E1  
 5.836250000000000E9    -1.713255260144820E1  -3.114192184552668E1  
 5.837500000000000E9    -1.707051629579779E1  -3.172222443655244E1  
 5.838750000000000E9    -1.700983642082977E1  -3.230952245770243E1  
 5.840000000000000E9    -1.694333204022471E1  -3.290497216068680E1  
 5.841250000000000E9    -1.687361251559250E1  -3.350387885442071E1  
 5.842500000000000E9    -1.680434941037715E1  -3.405819758419652E1  
 5.843750000000000E9    -1.673442475701398E1  -3.460319866021612E1  
 5.845000000000000E9    -1.666677403263637E1  -3.509551496192893E1  
 5.846250000000000E9    -1.659761116024643E1  -3.555495548948390E1  
 5.847500000000000E9    -1.652784122618932E1  -3.597764495180686E1  
 5.848750000000000E9    -1.646462028969900E1  -3.636425921850873E1  
 5.850000000000000E9    -1.640194242681131E1  -3.672659015025459E1  
 5.851250000000000E9    -1.634374194024645E1  -3.705045912100449E1  
 5.852500000000000E9    -1.628828588945297E1  -3.737679726076961E1  
 5.853750000000000E9    -1.623492678964737E1  -3.772080785397241E1  
 5.855000000000000E9    -1.618999934329580E1  -3.807842039148436E1  
 5.856250000000000E9    -1.614975193250958E1  -3.846815525371926E1  
 5.857500000000000E9    -1.611547069630168E1  -3.884698872850182E1  
 5.858750000000000E9    -1.609152063246543E1  -3.927188952724218E1  
