#  HZ   S   DB   R     50.00 
! Rohde & Schwarz ZVA24 4Ports - Version 3.60 - 1145.1110k28 SN: 101513
! Date: 2019-08-26 14:46:10
! Measurement: S33 
! 
 5.500000000000000E9    -1.310537411372269E1   1.373274465666920E2  
 5.501250000000000E9    -1.312473234922987E1   1.371242177884623E2  
 5.502500000000000E9    -1.314843704569887E1   1.368983302236476E2  
 5.503750000000000E9    -1.317875704370727E1   1.366700390974999E2  
 5.505000000000000E9    -1.321289177736365E1   1.364820227298762E2  
 5.506250000000000E9    -1.325197155151685E1   1.363084743130436E2  
 5.507500000000000E9    -1.329542330020748E1   1.361718144052324E2  
 5.508750000000000E9    -1.333819363119229E1   1.360700835850648E2  
 5.510000000000000E9    -1.337877869029192E1   1.359785208876660E2  
 5.511250000000000E9    -1.342029693158621E1   1.359025759384586E2  
 5.512500000000000E9    -1.346069557951187E1   1.357999111215928E2  
 5.513750000000000E9    -1.350008937252459E1   1.357154685511563E2  
 5.515000000000000E9    -1.354214441281562E1   1.356050008084698E2  
 5.516250000000000E9    -1.358241937176405E1   1.355183937779645E2  
 5.517500000000000E9    -1.362489083668537E1   1.354317019018820E2  
 5.518750000000000E9    -1.366479425655370E1   1.353765508126995E2  
 5.520000000000000E9    -1.369886857363344E1   1.353410299275623E2  
 5.521250000000000E9    -1.373048823932547E1   1.353086959794139E2  
 5.522500000000000E9    -1.375377197041908E1   1.352894127797822E2  
 5.523750000000000E9    -1.376783888664455E1   1.352537056709475E2  
 5.525000000000000E9    -1.377959662984004E1   1.352110777605327E2  
 5.526250000000000E9    -1.378623540192627E1   1.351426956303574E2  
 5.527500000000000E9    -1.378930465605574E1   1.350498264104899E2  
 5.528750000000000E9    -1.379233646132898E1   1.349462861493331E2  
 5.530000000000000E9    -1.379381316163287E1   1.348308323623628E2  
 5.531250000000000E9    -1.379823766646697E1   1.347041559634088E2  
 5.532500000000000E9    -1.380364150989976E1   1.345634483387007E2  
 5.533750000000000E9    -1.381271930436701E1   1.344109324536726E2  
 5.535000000000000E9    -1.382449867871396E1   1.342725894417912E2  
 5.536250000000000E9    -1.384280461592547E1   1.341351988500917E2  
 5.537500000000000E9    -1.386090133670701E1   1.340027365774835E2  
 5.538750000000000E9    -1.388476964574283E1   1.338856210013321E2  
 5.540000000000000E9    -1.391111880649812E1   1.337514552398351E2  
 5.541250000000000E9    -1.393843144147686E1   1.336354462406389E2  
 5.542500000000000E9    -1.396977542582379E1   1.335339117672960E2  
 5.543750000000000E9    -1.400008028524038E1   1.334392114185079E2  
 5.545000000000000E9    -1.403297132068457E1   1.333177760173489E2  
 5.546250000000000E9    -1.406414430851710E1   1.332010577789915E2  
 5.547500000000000E9    -1.409359303724999E1   1.330990337648810E2  
 5.548750000000000E9    -1.412324730943549E1   1.329956207017830E2  
 5.550000000000000E9    -1.414837503017320E1   1.328929660890846E2  
 5.551250000000000E9    -1.417031358245260E1   1.328105295450929E2  
 5.552500000000000E9    -1.418790850025926E1   1.327205009706410E2  
 5.553750000000000E9    -1.419812543818210E1   1.326415051771320E2  
 5.555000000000000E9    -1.419915773437283E1   1.325470823542679E2  
 5.556250000000000E9    -1.419939125153399E1   1.324330556677236E2  
 5.557500000000000E9    -1.419404992836989E1   1.322809745067600E2  
 5.558750000000000E9    -1.418767895427069E1   1.321293439402058E2  
 5.560000000000000E9    -1.418024456107404E1   1.319306100017600E2  
 5.561250000000000E9    -1.417907957346506E1   1.317321117342477E2  
 5.562500000000000E9    -1.417874222273898E1   1.315269473008336E2  
 5.563750000000000E9    -1.417777071413299E1   1.313360603538069E2  
 5.565000000000000E9    -1.418407768472519E1   1.311454825525219E2  
 5.566250000000000E9    -1.418789605565218E1   1.309501964282648E2  
 5.567500000000000E9    -1.419294995395494E1   1.307462105806470E2  
 5.568750000000000E9    -1.420101870063246E1   1.305281120078126E2  
 5.570000000000000E9    -1.421211013232324E1   1.303005654158682E2  
 5.571250000000000E9    -1.422854728424947E1   1.300601340811830E2  
 5.572500000000000E9    -1.425129838728991E1   1.298165614042397E2  
 5.573750000000000E9    -1.427845218199639E1   1.295967141214239E2  
 5.575000000000000E9    -1.430416095291623E1   1.294039039995324E2  
 5.576250000000000E9    -1.433098360246342E1   1.292294924437963E2  
 5.577500000000000E9    -1.434693342458458E1   1.290648749835090E2  
 5.578750000000000E9    -1.436013036926694E1   1.289198826897652E2  
 5.580000000000000E9    -1.436740452389878E1   1.287265888641458E2  
 5.581250000000000E9    -1.437330562019358E1   1.285159011948133E2  
 5.582500000000000E9    -1.437604144791501E1   1.283145057790968E2  
 5.583750000000000E9    -1.437923551266383E1   1.280986021632691E2  
 5.585000000000000E9    -1.438032944020393E1   1.278765004574625E2  
 5.586250000000000E9    -1.437920785669432E1   1.276749227742621E2  
 5.587500000000000E9    -1.437602417130470E1   1.275006097210266E2  
 5.588750000000000E9    -1.437085469789385E1   1.273154756887162E2  
 5.590000000000000E9    -1.436098972943148E1   1.271236132220412E2  
 5.591250000000000E9    -1.435345018949037E1   1.269388832162805E2  
 5.592500000000000E9    -1.434529574644969E1   1.267246771071393E2  
 5.593750000000000E9    -1.433863213669350E1   1.265205067896701E2  
 5.595000000000000E9    -1.433624719528903E1   1.263058840246768E2  
 5.596250000000000E9    -1.433234468809614E1   1.260756516575973E2  
 5.597500000000000E9    -1.432851540510782E1   1.258627877826002E2  
 5.598750000000000E9    -1.432678968371317E1   1.256175693100540E2  
 5.600000000000000E9    -1.432493441349500E1   1.253482413568000E2  
 5.601250000000000E9    -1.432573198592489E1   1.250586473302710E2  
 5.602500000000000E9    -1.432666538686791E1   1.247263109310472E2  
 5.603750000000000E9    -1.433071771689851E1   1.243757331649530E2  
 5.605000000000000E9    -1.433878515408113E1   1.239958729867590E2  
 5.606250000000000E9    -1.434592011888411E1   1.236008850283723E2  
 5.607500000000000E9    -1.435208606131761E1   1.232027026859900E2  
 5.608750000000000E9    -1.435987484046363E1   1.228145435700590E2  
 5.610000000000000E9    -1.436490751008950E1   1.224447455732754E2  
 5.611250000000000E9    -1.436568033654257E1   1.220496878120072E2  
 5.612500000000000E9    -1.436368478623497E1   1.216815689795691E2  
 5.613750000000000E9    -1.435733333516488E1   1.212771903116699E2  
 5.615000000000000E9    -1.435211074962237E1   1.208624349865801E2  
 5.616250000000000E9    -1.434577308682360E1   1.204825284298562E2  
 5.617500000000000E9    -1.433794331939052E1   1.200894596899887E2  
 5.618750000000000E9    -1.432878458454528E1   1.197336413613278E2  
 5.620000000000000E9    -1.431757275202274E1   1.193635621208418E2  
 5.621250000000000E9    -1.430693420657675E1   1.190052118640125E2  
 5.622500000000000E9    -1.429735845270124E1   1.186158883487779E2  
 5.623750000000000E9    -1.429018531503315E1   1.182374480645518E2  
 5.625000000000000E9    -1.428933586219974E1   1.178631504242648E2  
 5.626250000000000E9    -1.428853146298438E1   1.174712388586573E2  
 5.627500000000000E9    -1.429104642136854E1   1.170808064370118E2  
 5.628750000000000E9    -1.429368967115897E1   1.166668379672068E2  
 5.630000000000000E9    -1.430142169696313E1   1.162501057830907E2  
 5.631250000000000E9    -1.431159784456695E1   1.158102922109092E2  
 5.632500000000000E9    -1.432570921385442E1   1.153413665593291E2  
 5.633750000000000E9    -1.434070767765264E1   1.148649720419925E2  
 5.635000000000000E9    -1.435835176998258E1   1.143843642605610E2  
 5.636250000000000E9    -1.437654832734112E1   1.138904916796334E2  
 5.637500000000000E9    -1.439469500362354E1   1.133911641527689E2  
 5.638750000000000E9    -1.441351234885324E1   1.128979404613942E2  
 5.640000000000000E9    -1.443291483347245E1   1.124365672505617E2  
 5.641250000000000E9    -1.444903750878289E1   1.119637638505875E2  
 5.642500000000000E9    -1.446248336728752E1   1.115175520511331E2  
 5.643750000000000E9    -1.446868833612482E1   1.110963289999285E2  
 5.645000000000000E9    -1.447077555405570E1   1.106952058235477E2  
 5.646250000000000E9    -1.446958132566889E1   1.102716344385101E2  
 5.647500000000000E9    -1.446212831884627E1   1.098727007846926E2  
 5.648750000000000E9    -1.445613189772630E1   1.094574282945411E2  
 5.650000000000000E9    -1.444522021298499E1   1.090380494921706E2  
 5.651250000000000E9    -1.443343112182914E1   1.086215498998394E2  
 5.652500000000000E9    -1.442246236944093E1   1.081990717661230E2  
 5.653750000000000E9    -1.441210858351417E1   1.077608879557322E2  
 5.655000000000000E9    -1.440174612609431E1   1.073012314250712E2  
 5.656250000000000E9    -1.439250565889912E1   1.068282679053637E2  
 5.657500000000000E9    -1.438570733814253E1   1.063157851228151E2  
 5.658750000000000E9    -1.437980547276187E1   1.057562814427557E2  
 5.660000000000000E9    -1.438227955675674E1   1.051884631495865E2  
 5.661250000000000E9    -1.439017070924699E1   1.045916563353483E2  
 5.662500000000000E9    -1.440052641467237E1   1.039919796984346E2  
 5.663750000000000E9    -1.441443832497806E1   1.033781835311292E2  
 5.665000000000000E9    -1.443171426867318E1   1.027746973637974E2  
 5.666250000000000E9    -1.444623232523445E1   1.021927043472129E2  
 5.667500000000000E9    -1.445794181732024E1   1.016242028787754E2  
 5.668750000000000E9    -1.446363761680295E1   1.010369231046469E2  
 5.670000000000000E9    -1.446940124463755E1   1.004416290318589E2  
 5.671250000000000E9    -1.447099071238683E1   9.983703257819903E1  
 5.672500000000000E9    -1.447135498830001E1   9.923421628906512E1  
 5.673750000000000E9    -1.447770079376214E1   9.862015180837399E1  
 5.675000000000000E9    -1.448252363318471E1   9.804676835191428E1  
 5.676250000000000E9    -1.448688292308449E1   9.749981871869098E1  
 5.677500000000000E9    -1.449081794324202E1   9.696722007692445E1  
 5.678750000000000E9    -1.449646375887158E1   9.645588910252550E1  
 5.680000000000000E9    -1.449896603318828E1   9.596059881291917E1  
 5.681250000000000E9    -1.450551133749487E1   9.546687949695426E1  
 5.682500000000000E9    -1.451071702482116E1   9.497841681622447E1  
 5.683750000000000E9    -1.451765675714680E1   9.449042656910260E1  
 5.685000000000000E9    -1.452368071218238E1   9.400628401724973E1  
 5.686250000000000E9    -1.453205734241112E1   9.350212493247959E1  
 5.687500000000000E9    -1.453509923647098E1   9.298313084542450E1  
 5.688750000000000E9    -1.453895683819776E1   9.243269645051009E1  
 5.690000000000000E9    -1.454432383103145E1   9.183961709293945E1  
 5.691250000000000E9    -1.454949052288509E1   9.120293946363269E1  
 5.692500000000000E9    -1.455596742499782E1   9.053084901488624E1  
 5.693750000000000E9    -1.456173029097042E1   8.982770384313369E1  
 5.695000000000000E9    -1.457060344066893E1   8.909784787624527E1  
 5.696250000000000E9    -1.457804408254107E1   8.835997659610672E1  
 5.697500000000000E9    -1.458316906930560E1   8.761254343108620E1  
 5.698750000000000E9    -1.458812841895944E1   8.686897780049343E1  
 5.700000000000000E9    -1.459294033352338E1   8.611784792821631E1  
 5.701250000000000E9    -1.459869848291035E1   8.539903606070732E1  
 5.702500000000000E9    -1.460117774492488E1   8.470432410660754E1  
 5.703750000000000E9    -1.460343272583822E1   8.403163983958612E1  
 5.705000000000000E9    -1.460190379185736E1   8.340055374652161E1  
 5.706250000000000E9    -1.460020807075672E1   8.277802639773807E1  
 5.707500000000000E9    -1.459469026792255E1   8.215839344388762E1  
 5.708750000000000E9    -1.459646846991785E1   8.156872013221690E1  
 5.710000000000000E9    -1.459801702352515E1   8.099538073790163E1  
 5.711250000000000E9    -1.460123452336459E1   8.045318676737790E1  
 5.712500000000000E9    -1.460363755809024E1   7.990677931066480E1  
 5.713750000000000E9    -1.460593055521419E1   7.935727736413757E1  
 5.715000000000000E9    -1.459047006218928E1   7.874805844445653E1  
 5.716250000000000E9    -1.459326631702365E1   7.812285843956377E1  
 5.717500000000000E9    -1.459994402323275E1   7.749473226577293E1  
 5.718750000000000E9    -1.461012619128057E1   7.682246805703528E1  
 5.720000000000000E9    -1.462206519363048E1   7.613767321414818E1  
 5.721250000000000E9    -1.463538032245069E1   7.543224319349585E1  
 5.722500000000000E9    -1.464891786256539E1   7.468626312622466E1  
 5.723750000000000E9    -1.466043228787806E1   7.392943791651355E1  
 5.725000000000000E9    -1.467289098236425E1   7.314536812186032E1  
 5.726250000000000E9    -1.468847364341371E1   7.235987513870072E1  
 5.727500000000000E9    -1.470603843927778E1   7.156133416372337E1  
 5.728750000000000E9    -1.472120881509841E1   7.078744463107796E1  
 5.730000000000000E9    -1.473669657776163E1   7.004697613058488E1  
 5.731250000000000E9    -1.475218808119802E1   6.934695012605965E1  
 5.732500000000000E9    -1.476315134278664E1   6.867160933700475E1  
 5.733750000000000E9    -1.477155483771517E1   6.802168301075326E1  
 5.735000000000000E9    -1.477685001536888E1   6.739251264460337E1  
 5.736250000000000E9    -1.478086408570782E1   6.676588433414214E1  
 5.737500000000000E9    -1.478738767085172E1   6.614585599239031E1  
 5.738750000000000E9    -1.479416793573569E1   6.554440387324692E1  
 5.740000000000000E9    -1.480455159647513E1   6.494342793005326E1  
 5.741250000000000E9    -1.481576272071717E1   6.436609263366609E1  
 5.742500000000000E9    -1.482321963693840E1   6.379091525324994E1  
 5.743750000000000E9    -1.483224623168402E1   6.320954541956088E1  
 5.745000000000000E9    -1.484277174339473E1   6.260774599095215E1  
 5.746250000000000E9    -1.485005251960376E1   6.198556351446866E1  
 5.747500000000000E9    -1.485719199845013E1   6.135233031469853E1  
 5.748750000000000E9    -1.486394452451507E1   6.066391119045648E1  
 5.750000000000000E9    -1.486859427533005E1   5.995387538110160E1  
 5.751250000000000E9    -1.487067813398848E1   5.921502590642074E1  
 5.752500000000000E9    -1.487174416596523E1   5.844132050068910E1  
 5.753750000000000E9    -1.487262568033339E1   5.762835299906921E1  
 5.755000000000000E9    -1.486859366372820E1   5.681554105445510E1  
 5.756250000000000E9    -1.486787177261477E1   5.600774236415417E1  
 5.757500000000000E9    -1.485786366690419E1   5.519797235541729E1  
 5.758750000000000E9    -1.484961404087228E1   5.439095423607457E1  
 5.760000000000000E9    -1.484122701657819E1   5.360354681679132E1  
 5.761250000000000E9    -1.483303395393319E1   5.283248671586306E1  
 5.762500000000000E9    -1.482617985271524E1   5.209907831905368E1  
 5.763750000000000E9    -1.482546767653376E1   5.140333304343544E1  
 5.765000000000000E9    -1.482320602797798E1   5.075033625285530E1  
 5.766250000000000E9    -1.482287865606477E1   5.014254932961391E1  
 5.767500000000000E9    -1.482399856515229E1   4.955063574311286E1  
 5.768750000000000E9    -1.482303962889358E1   4.898508433593580E1  
 5.770000000000000E9    -1.482392014794965E1   4.843089132893611E1  
 5.771250000000000E9    -1.482758478839139E1   4.786401929146398E1  
 5.772500000000000E9    -1.483090272425252E1   4.730371481105509E1  
 5.773750000000000E9    -1.483830997440794E1   4.671707128224672E1  
 5.775000000000000E9    -1.484402240223084E1   4.612025518757575E1  
 5.776250000000000E9    -1.484979571090296E1   4.549586359104776E1  
 5.777500000000000E9    -1.486069979009821E1   4.486025693426358E1  
 5.778750000000000E9    -1.487106082874120E1   4.417821461808993E1  
 5.780000000000000E9    -1.488028604313153E1   4.348720326794613E1  
 5.781250000000000E9    -1.488719771931044E1   4.276169556551656E1  
 5.782500000000000E9    -1.489447976551416E1   4.201414949679451E1  
 5.783750000000000E9    -1.490027410068264E1   4.125846867221986E1  
 5.785000000000000E9    -1.490570090866465E1   4.049732915052231E1  
 5.786250000000000E9    -1.490755139600171E1   3.975866147549814E1  
 5.787500000000000E9    -1.490867855877852E1   3.902592595968979E1  
 5.788750000000000E9    -1.490746628927911E1   3.833922983546390E1  
 5.790000000000000E9    -1.490404428906152E1   3.768844173029079E1  
 5.791250000000000E9    -1.489682766191233E1   3.705277489310285E1  
 5.792500000000000E9    -1.488807382629903E1   3.645290793152045E1  
 5.793750000000000E9    -1.487601717987159E1   3.585686975410089E1  
 5.795000000000000E9    -1.486669257831767E1   3.527096170491865E1  
 5.796250000000000E9    -1.486140783542316E1   3.469064817369385E1  
 5.797500000000000E9    -1.486016444901867E1   3.412838429767295E1  
 5.798750000000000E9    -1.486181193299489E1   3.358568153140548E1  
 5.800000000000000E9    -1.486617245036743E1   3.304543565875905E1  
 5.801250000000000E9    -1.487333598271494E1   3.252076023003252E1  
 5.802500000000000E9    -1.488159907165919E1   3.201076343913645E1  
 5.803750000000000E9    -1.488676828686268E1   3.148913017646659E1  
 5.805000000000000E9    -1.489145579071946E1   3.095651371478406E1  
 5.806250000000000E9    -1.489082886062524E1   3.044037252552592E1  
 5.807500000000000E9    -1.489272387576839E1   2.988069005916599E1  
 5.808750000000000E9    -1.488847100332390E1   2.928400675291416E1  
 5.810000000000000E9    -1.488621387455062E1   2.866313811329692E1  
 5.811250000000000E9    -1.488405772214824E1   2.803749758077061E1  
 5.812500000000000E9    -1.487758915175302E1   2.742477656281144E1  
 5.813750000000000E9    -1.486745191642641E1   2.683072964990188E1  
 5.815000000000000E9    -1.485270346374512E1   2.623790209094913E1  
 5.816250000000000E9    -1.483173457801762E1   2.565000140229467E1  
 5.817500000000000E9    -1.480405870719810E1   2.510201427362760E1  
 5.818750000000000E9    -1.477301439095667E1   2.451941423614018E1  
 5.820000000000000E9    -1.474189907967880E1   2.394848652105126E1  
 5.821250000000000E9    -1.470903475655634E1   2.340663734235652E1  
 5.822500000000000E9    -1.468225799199245E1   2.284206593879087E1  
 5.823750000000000E9    -1.465952155970599E1   2.230151325180630E1  
 5.825000000000000E9    -1.464434018750786E1   2.176810092092739E1  
 5.826250000000000E9    -1.462836741253917E1   2.126010538322216E1  
 5.827500000000000E9    -1.462149865876001E1   2.076387068979933E1  
 5.828750000000000E9    -1.461761072780279E1   2.026965223474308E1  
 5.830000000000000E9    -1.462014298233144E1   1.979547724350944E1  
 5.831250000000000E9    -1.462344065400929E1   1.930789969763512E1  
 5.832500000000000E9    -1.462495248116544E1   1.883684938491803E1  
 5.833750000000000E9    -1.463118008907677E1   1.835677340263439E1  
 5.835000000000000E9    -1.463126997903912E1   1.787390946533569E1  
 5.836250000000000E9    -1.463373497127247E1   1.737622563352981E1  
 5.837500000000000E9    -1.462910807737819E1   1.682865641840773E1  
 5.838750000000000E9    -1.462445887041370E1   1.626781415697428E1  
 5.840000000000000E9    -1.461886028052323E1   1.570384481647270E1  
 5.841250000000000E9    -1.460978995136823E1   1.510912009396493E1  
 5.842500000000000E9    -1.459869046858158E1   1.454769569924576E1  
 5.843750000000000E9    -1.458508917242217E1   1.397549063548708E1  
 5.845000000000000E9    -1.456713579678464E1   1.342982432630117E1  
 5.846250000000000E9    -1.454467729080198E1   1.288303881264686E1  
 5.847500000000000E9    -1.451789075557479E1   1.236712496745827E1  
 5.848750000000000E9    -1.449115098181347E1   1.186922147083175E1  
 5.850000000000000E9    -1.446206203650421E1   1.139524387677859E1  
 5.851250000000000E9    -1.443286910811330E1   1.094608395814488E1  
 5.852500000000000E9    -1.440203387856389E1   1.051920462887713E1  
 5.853750000000000E9    -1.437581416411042E1   1.009074205169289E1  
 5.855000000000000E9    -1.435149505416127E1   9.666376466195965  
 5.856250000000000E9    -1.433348287032105E1   9.253859105759876  
 5.857500000000000E9    -1.431746917846910E1   8.848558102891801  
