#  HZ   S   DB   R     50.00 
! Rohde & Schwarz ZVA24 4Ports - Version 3.60 - 1145.1110k28 SN: 101513
! Date: 2019-08-26 13:35:45
! Measurement: S33 
! 
 5.500000000000000E9    -1.298696188173174E1   1.668058497461643E2  
 5.501250000000000E9    -1.302257515270390E1   1.664510357485071E2  
 5.502500000000000E9    -1.306257015305419E1   1.661638017911188E2  
 5.503750000000000E9    -1.310108902487812E1   1.659479783824704E2  
 5.505000000000000E9    -1.312921415843240E1   1.658219383901039E2  
 5.506250000000000E9    -1.315520299024564E1   1.656685441805982E2  
 5.507500000000000E9    -1.317624862365586E1   1.654992437559622E2  
 5.508750000000000E9    -1.319402026342914E1   1.653071035278445E2  
 5.510000000000000E9    -1.321210526326109E1   1.650792603125155E2  
 5.511250000000000E9    -1.323816929295841E1   1.648161236139784E2  
 5.512500000000000E9    -1.326971918024562E1   1.645438641715104E2  
 5.513750000000000E9    -1.330468295791503E1   1.642733062631116E2  
 5.515000000000000E9    -1.334273378056062E1   1.640018377435896E2  
 5.516250000000000E9    -1.337907488392585E1   1.637533307776971E2  
 5.517500000000000E9    -1.341383328446044E1   1.634995767382933E2  
 5.518750000000000E9    -1.344403905074280E1   1.632282821750152E2  
 5.520000000000000E9    -1.347040171020825E1   1.629511292223248E2  
 5.521250000000000E9    -1.349561574762569E1   1.626428913518877E2  
 5.522500000000000E9    -1.352070584244721E1   1.623026330826500E2  
 5.523750000000000E9    -1.353730877300012E1   1.619405129759020E2  
 5.525000000000000E9    -1.355615257768942E1   1.615387573186700E2  
 5.526250000000000E9    -1.357599914903577E1   1.610968420988918E2  
 5.527500000000000E9    -1.360141330858064E1   1.606208111208694E2  
 5.528750000000000E9    -1.363551224205376E1   1.601306636981709E2  
 5.530000000000000E9    -1.367931061199067E1   1.596729553814563E2  
 5.531250000000000E9    -1.372993217098613E1   1.592545211528896E2  
 5.532500000000000E9    -1.378798049097465E1   1.589004294866120E2  
 5.533750000000000E9    -1.385091860813320E1   1.586024524794177E2  
 5.535000000000000E9    -1.391615126688312E1   1.583955030274287E2  
 5.536250000000000E9    -1.397804209852598E1   1.582539399034337E2  
 5.537500000000000E9    -1.403423713810644E1   1.581570986091260E2  
 5.538750000000000E9    -1.408697524430140E1   1.580746833138109E2  
 5.540000000000000E9    -1.413988725239115E1   1.579619450892191E2  
 5.541250000000000E9    -1.419296360389944E1   1.578504024866322E2  
 5.542500000000000E9    -1.425157856986370E1   1.577562756357051E2  
 5.543750000000000E9    -1.430828331389614E1   1.576968146818084E2  
 5.545000000000000E9    -1.436427830156559E1   1.576391433905831E2  
 5.546250000000000E9    -1.441172379705468E1   1.576293475752462E2  
 5.547500000000000E9    -1.444732984168508E1   1.575957849532987E2  
 5.548750000000000E9    -1.447333666745549E1   1.575269815534963E2  
 5.550000000000000E9    -1.448849207551286E1   1.573859635077512E2  
 5.551250000000000E9    -1.449766916728028E1   1.571737138066191E2  
 5.552500000000000E9    -1.450660795117591E1   1.568865600477290E2  
 5.553750000000000E9    -1.451347537117172E1   1.565044928603975E2  
 5.555000000000000E9    -1.452621629515884E1   1.560516531263955E2  
 5.556250000000000E9    -1.455340383556243E1   1.555554362361495E2  
 5.557500000000000E9    -1.459217582346432E1   1.550678983180332E2  
 5.558750000000000E9    -1.463935546883521E1   1.546474368298848E2  
 5.560000000000000E9    -1.468909182210509E1   1.543044207303697E2  
 5.561250000000000E9    -1.474032649235613E1   1.540192869874407E2  
 5.562500000000000E9    -1.479422070400419E1   1.537650839824127E2  
 5.563750000000000E9    -1.484071528108718E1   1.535922120046949E2  
 5.565000000000000E9    -1.488853706069515E1   1.534570705320305E2  
 5.566250000000000E9    -1.492766405013043E1   1.533521459249357E2  
 5.567500000000000E9    -1.496138543345152E1   1.532418951337415E2  
 5.568750000000000E9    -1.498982240006787E1   1.531253145754867E2  
 5.570000000000000E9    -1.501438637554652E1   1.529705094897025E2  
 5.571250000000000E9    -1.503481885789045E1   1.527834020214351E2  
 5.572500000000000E9    -1.505532183527246E1   1.525022670119669E2  
 5.573750000000000E9    -1.507980968447039E1   1.521597254312334E2  
 5.575000000000000E9    -1.510793046513700E1   1.517584237680453E2  
 5.576250000000000E9    -1.514557339273444E1   1.513139945338770E2  
 5.577500000000000E9    -1.518349179229879E1   1.508559698226416E2  
 5.578750000000000E9    -1.522228497196682E1   1.504003799001970E2  
 5.580000000000000E9    -1.525816737417114E1   1.498965548106907E2  
 5.581250000000000E9    -1.529727640541322E1   1.493496522102522E2  
 5.582500000000000E9    -1.533774465708494E1   1.487574024499593E2  
 5.583750000000000E9    -1.539267327539680E1   1.481484192654672E2  
 5.585000000000000E9    -1.545084003690695E1   1.475351643253723E2  
 5.586250000000000E9    -1.551575773875867E1   1.469637670473519E2  
 5.587500000000000E9    -1.558407809859417E1   1.464493402859465E2  
 5.588750000000000E9    -1.566124996903893E1   1.459596644475231E2  
 5.590000000000000E9    -1.573992167605547E1   1.455042120945220E2  
 5.591250000000000E9    -1.582587314619817E1   1.451315605453419E2  
 5.592500000000000E9    -1.591611228908935E1   1.447886374847737E2  
 5.593750000000000E9    -1.600953878655314E1   1.445389419884975E2  
 5.595000000000000E9    -1.610895307964980E1   1.443513072289683E2  
 5.596250000000000E9    -1.620447319760099E1   1.442115126301367E2  
 5.597500000000000E9    -1.630115329493864E1   1.441290182149407E2  
 5.598750000000000E9    -1.639607076451917E1   1.440886668523345E2  
 5.600000000000000E9    -1.648915320255245E1   1.440703055252412E2  
 5.601250000000000E9    -1.657510538934298E1   1.440982631971408E2  
 5.602500000000000E9    -1.665651500900865E1   1.441133398695854E2  
 5.603750000000000E9    -1.673065927551290E1   1.441361164554532E2  
 5.605000000000000E9    -1.679492150858366E1   1.441248593173284E2  
 5.606250000000000E9    -1.684656477121667E1   1.440838443412233E2  
 5.607500000000000E9    -1.688369533594575E1   1.439404892625465E2  
 5.608750000000000E9    -1.691707615363852E1   1.437037892537872E2  
 5.610000000000000E9    -1.695122486182370E1   1.434021669203521E2  
 5.611250000000000E9    -1.698872378513197E1   1.430184262312931E2  
 5.612500000000000E9    -1.702377728633391E1   1.426731465996807E2  
 5.613750000000000E9    -1.705909320238028E1   1.423132207418866E2  
 5.615000000000000E9    -1.708583267475541E1   1.419331224341921E2  
 5.616250000000000E9    -1.711079715831304E1   1.415742269119787E2  
 5.617500000000000E9    -1.713037435717186E1   1.411609297124352E2  
 5.618750000000000E9    -1.715009706804166E1   1.407823857781430E2  
 5.620000000000000E9    -1.716669274653784E1   1.403537254474980E2  
 5.621250000000000E9    -1.718284123855048E1   1.399205191538725E2  
 5.622500000000000E9    -1.720554707976364E1   1.394028411770564E2  
 5.623750000000000E9    -1.723856718294051E1   1.388724146093894E2  
 5.625000000000000E9    -1.728897173939090E1   1.383274920014262E2  
 5.626250000000000E9    -1.735605748107135E1   1.378139459968901E2  
 5.627500000000000E9    -1.743129867199415E1   1.373603581480506E2  
 5.628750000000000E9    -1.751108319256443E1   1.369373755900859E2  
 5.630000000000000E9    -1.759292014145238E1   1.365829447429992E2  
 5.631250000000000E9    -1.767442985994897E1   1.362426536466316E2  
 5.632500000000000E9    -1.775011989191919E1   1.358743732315172E2  
 5.633750000000000E9    -1.782514173554367E1   1.354856704514568E2  
 5.635000000000000E9    -1.788969935442272E1   1.350517290162894E2  
 5.636250000000000E9    -1.794861174018132E1   1.345373793340359E2  
 5.637500000000000E9    -1.800589678755558E1   1.339171497994776E2  
 5.638750000000000E9    -1.806279039956903E1   1.331884149078760E2  
 5.640000000000000E9    -1.812775480030772E1   1.323738302944541E2  
 5.641250000000000E9    -1.819865755668588E1   1.315081510848681E2  
 5.642500000000000E9    -1.827757207858649E1   1.305952162091732E2  
 5.643750000000000E9    -1.836487372842919E1   1.296706534220143E2  
 5.645000000000000E9    -1.846298959187465E1   1.287310470918170E2  
 5.646250000000000E9    -1.858154311152928E1   1.278119760903321E2  
 5.647500000000000E9    -1.870723585118197E1   1.270012463684186E2  
 5.648750000000000E9    -1.885117625508855E1   1.263175936193199E2  
 5.650000000000000E9    -1.898880167194253E1   1.257796510807559E2  
 5.651250000000000E9    -1.912814821454960E1   1.253146600409159E2  
 5.652500000000000E9    -1.926632233944035E1   1.249151790864787E2  
 5.653750000000000E9    -1.940636015723472E1   1.245729304112258E2  
 5.655000000000000E9    -1.955147406464170E1   1.243041589628245E2  
 5.656250000000000E9    -1.969499940703002E1   1.240899808707678E2  
 5.657500000000000E9    -1.984398730151725E1   1.239395889132718E2  
 5.658750000000000E9    -1.998484857266061E1   1.238335163845017E2  
 5.660000000000000E9    -2.011886665801742E1   1.237760967908403E2  
 5.661250000000000E9    -2.024520250032087E1   1.237040724307554E2  
 5.662500000000000E9    -2.036331535005177E1   1.235969426872891E2  
 5.663750000000000E9    -2.048040812145127E1   1.234665659917331E2  
 5.665000000000000E9    -2.059359058437196E1   1.233224583140798E2  
 5.666250000000000E9    -2.068770138262829E1   1.232074777140686E2  
 5.667500000000000E9    -2.077053359403957E1   1.230962290350792E2  
 5.668750000000000E9    -2.082632069839074E1   1.229165641227352E2  
 5.670000000000000E9    -2.086242295590481E1   1.226909481540145E2  
 5.671250000000000E9    -2.086940401069253E1   1.223140450132695E2  
 5.672500000000000E9    -2.086773756152471E1   1.218197025821044E2  
 5.673750000000000E9    -2.086720619131374E1   1.211586726936876E2  
 5.675000000000000E9    -2.086223597667816E1   1.204044499317108E2  
 5.676250000000000E9    -2.086828407138616E1   1.195331521555253E2  
 5.677500000000000E9    -2.089332054187687E1   1.186744724382997E2  
 5.678750000000000E9    -2.093069663162146E1   1.177939454575583E2  
 5.680000000000000E9    -2.097666538801904E1   1.169549577460176E2  
 5.681250000000000E9    -2.103130394531245E1   1.160860607493911E2  
 5.682500000000000E9    -2.109770710551645E1   1.151482316753029E2  
 5.683750000000000E9    -2.118382364140555E1   1.142003544988455E2  
 5.685000000000000E9    -2.129381509119686E1   1.132008726894284E2  
 5.686250000000000E9    -2.143420946801608E1   1.122512860616907E2  
 5.687500000000000E9    -2.159495327767024E1   1.113326340441290E2  
 5.688750000000000E9    -2.176026076089778E1   1.105221735246793E2  
 5.690000000000000E9    -2.192468476905469E1   1.097738515083772E2  
 5.691250000000000E9    -2.209489029048984E1   1.089823630968983E2  
 5.692500000000000E9    -2.225770785724064E1   1.081632152791520E2  
 5.693750000000000E9    -2.241936366873302E1   1.072967780506600E2  
 5.695000000000000E9    -2.257947646046060E1   1.064047580210388E2  
 5.696250000000000E9    -2.272606431198851E1   1.054807655960734E2  
 5.697500000000000E9    -2.286127866866594E1   1.045123257510687E2  
 5.698750000000000E9    -2.299039051916992E1   1.035453879277428E2  
 5.700000000000000E9    -2.310315091856738E1   1.025926329157928E2  
 5.701250000000000E9    -2.320043750006977E1   1.016932275074064E2  
 5.702500000000000E9    -2.327814436655878E1   1.007554719223362E2  
 5.703750000000000E9    -2.333447824582673E1   9.984292376961469E1  
 5.705000000000000E9    -2.337923642310073E1   9.890083408564185E1  
 5.706250000000000E9    -2.341713782127048E1   9.787561788870413E1  
 5.707500000000000E9    -2.344791482425452E1   9.682795341304282E1  
 5.708750000000000E9    -2.349516965273185E1   9.571118276197542E1  
 5.710000000000000E9    -2.354743939103369E1   9.449669843516752E1  
 5.711250000000000E9    -2.362904492503003E1   9.319540034592549E1  
 5.712500000000000E9    -2.374599588965578E1   9.181600249623824E1  
 5.713750000000000E9    -2.391302723016682E1   9.048604047742499E1  
 5.715000000000000E9    -2.412664887288168E1   8.920647628854637E1  
 5.716250000000000E9    -2.436952271972071E1   8.813837610330263E1  
 5.717500000000000E9    -2.463023536546398E1   8.737325088573947E1  
 5.718750000000000E9    -2.487492310123080E1   8.682876553511817E1  
 5.720000000000000E9    -2.509010779455412E1   8.636497140585365E1  
 5.721250000000000E9    -2.527278870468433E1   8.593956506668272E1  
 5.722500000000000E9    -2.542754763936702E1   8.537652351721332E1  
 5.723750000000000E9    -2.554456425008748E1   8.470392550419153E1  
 5.725000000000000E9    -2.563768745646872E1   8.388468348120232E1  
 5.726250000000000E9    -2.570408294989296E1   8.293745850786129E1  
 5.727500000000000E9    -2.575641065153520E1   8.178485297216771E1  
 5.728750000000000E9    -2.579579941176796E1   8.051599919682438E1  
 5.730000000000000E9    -2.582423405764635E1   7.913605350474286E1  
 5.731250000000000E9    -2.584201341122422E1   7.779446973767659E1  
 5.732500000000000E9    -2.586261789660130E1   7.639836479386534E1  
 5.733750000000000E9    -2.589185776910904E1   7.511277598361622E1  
 5.735000000000000E9    -2.591343170862564E1   7.396118229025331E1  
 5.736250000000000E9    -2.591965017789372E1   7.295758108278206E1  
 5.737500000000000E9    -2.591453856351133E1   7.202313521529604E1  
 5.738750000000000E9    -2.587547720825452E1   7.102822746208659E1  
 5.740000000000000E9    -2.583382731360069E1   6.982217791308828E1  
 5.741250000000000E9    -2.580243815888997E1   6.846642236652335E1  
 5.742500000000000E9    -2.577960473177178E1   6.693750955895222E1  
 5.743750000000000E9    -2.579605805074426E1   6.510074435109320E1  
 5.745000000000000E9    -2.583936514031691E1   6.317571008801003E1  
 5.746250000000000E9    -2.590565243483720E1   6.123186947436042E1  
 5.747500000000000E9    -2.599673293320229E1   5.933133422526866E1  
 5.748750000000000E9    -2.609469669803440E1   5.741630995046778E1  
 5.750000000000000E9    -2.617553810995307E1   5.554538977582733E1  
 5.751250000000000E9    -2.623084542022713E1   5.372921150485527E1  
 5.752500000000000E9    -2.626869306072381E1   5.177548728032359E1  
 5.753750000000000E9    -2.630069422806533E1   4.980290627523553E1  
 5.755000000000000E9    -2.631761100702743E1   4.785803599785191E1  
 5.756250000000000E9    -2.632665522662397E1   4.604887272553233E1  
 5.757500000000000E9    -2.630489360311561E1   4.446728944355036E1  
 5.758750000000000E9    -2.626486592584487E1   4.299370786303555E1  
 5.760000000000000E9    -2.619668616784326E1   4.170210027518586E1  
 5.761250000000000E9    -2.610325829045419E1   4.056663547953385E1  
 5.762500000000000E9    -2.599190761667781E1   3.953233410459338E1  
 5.763750000000000E9    -2.587644824299881E1   3.854556017018409E1  
 5.765000000000000E9    -2.574218282965434E1   3.755469356603997E1  
 5.766250000000000E9    -2.561450919381992E1   3.658164010034626E1  
 5.767500000000000E9    -2.550255129328350E1   3.551791995604219E1  
 5.768750000000000E9    -2.541517811434215E1   3.450098330957111E1  
 5.770000000000000E9    -2.534058626797380E1   3.341811686638646E1  
 5.771250000000000E9    -2.527736147395085E1   3.233243881713769E1  
 5.772500000000000E9    -2.520668510620592E1   3.119702475632077E1  
 5.773750000000000E9    -2.515307461464163E1   2.995744350169150E1  
 5.775000000000000E9    -2.510173130655012E1   2.866441242363254E1  
 5.776250000000000E9    -2.505031812571903E1   2.733761414034184E1  
 5.777500000000000E9    -2.499071112785671E1   2.593166976200865E1  
 5.778750000000000E9    -2.492079093638466E1   2.438205610143444E1  
 5.780000000000000E9    -2.484564961535580E1   2.272264071835602E1  
 5.781250000000000E9    -2.477920649330484E1   2.100604177006510E1  
 5.782500000000000E9    -2.472358307293284E1   1.919165930760654E1  
 5.783750000000000E9    -2.466921600201052E1   1.758817919910869E1  
 5.785000000000000E9    -2.461356989597886E1   1.611030937417830E1  
 5.786250000000000E9    -2.453911580444059E1   1.480056862481207E1  
 5.787500000000000E9    -2.446655312095826E1   1.364997209378575E1  
 5.788750000000000E9    -2.436722043676819E1   1.263697232514861E1  
 5.790000000000000E9    -2.427086600457407E1   1.177300119948632E1  
 5.791250000000000E9    -2.416223124240007E1   1.097501299456009E1  
 5.792500000000000E9    -2.405985549787019E1   1.031980963918989E1  
 5.793750000000000E9    -2.395607555084921E1   9.725700243015403  
 5.795000000000000E9    -2.384985600844815E1   9.192392496652269  
 5.796250000000000E9    -2.374468706254899E1   8.718338534301747  
 5.797500000000000E9    -2.364233614100181E1   8.187702128293889  
 5.798750000000000E9    -2.354476540791742E1   7.567939203271884  
 5.800000000000000E9    -2.345503344067596E1   6.908056830719917  
 5.801250000000000E9    -2.338103552971213E1   6.247108329466584  
 5.802500000000000E9    -2.332112748828843E1   5.583527576354299  
 5.803750000000000E9    -2.326443731035277E1   4.971412762196302  
 5.805000000000000E9    -2.319201832241430E1   4.429046963950722  
 5.806250000000000E9    -2.310434795982316E1   3.936394044368540  
 5.807500000000000E9    -2.299355854656600E1   3.382410304103598  
 5.808750000000000E9    -2.286110952253730E1   2.733679425751848  
 5.810000000000000E9    -2.271900823185109E1   1.981109139580925  
 5.811250000000000E9    -2.257367008800498E1   1.215683258159573  
 5.812500000000000E9    -2.240983427803243E1   4.158071868109350E-1  
 5.813750000000000E9    -2.224908347739066E1  -4.246032354374865E-1  
 5.815000000000000E9    -2.209614623165180E1  -1.271785815476978  
 5.816250000000000E9    -2.194604551268088E1  -2.058276830321311  
 5.817500000000000E9    -2.180081178122149E1  -2.749173366617714  
 5.818750000000000E9    -2.165681985596075E1  -3.383991978297384  
 5.820000000000000E9    -2.152304495122134E1  -3.965413188968625  
 5.821250000000000E9    -2.139089382814560E1  -4.506224858647394  
 5.822500000000000E9    -2.128112582434889E1  -5.042159329214769  
 5.823750000000000E9    -2.117959675730331E1  -5.447966638839673  
 5.825000000000000E9    -2.109269618011194E1  -5.874677973496911  
 5.826250000000000E9    -2.100790777728506E1  -6.232255632842567  
 5.827500000000000E9    -2.092732059458853E1  -6.574621676042485  
 5.828750000000000E9    -2.084870008118259E1  -6.955931279842193  
 5.830000000000000E9    -2.078200881541840E1  -7.342147617711097  
 5.831250000000000E9    -2.071316198827871E1  -7.770025877009825  
 5.832500000000000E9    -2.064356863043462E1  -8.184376123518110  
 5.833750000000000E9    -2.058083708217906E1  -8.646717219105835  
 5.835000000000000E9    -2.050231553220987E1  -9.068096808739794  
 5.836250000000000E9    -2.042461639753652E1  -9.533626961218099  
 5.837500000000000E9    -2.032484351763638E1  -1.004275027447915E1  
 5.838750000000000E9    -2.022134842046780E1  -1.055986395333106E1  
 5.840000000000000E9    -2.010653749031911E1  -1.108240424051260E1  
 5.841250000000000E9    -1.997939470682203E1  -1.163633544571154E1  
 5.842500000000000E9    -1.984281426259861E1  -1.215518840071903E1  
 5.843750000000000E9    -1.970391876293874E1  -1.271451859227726E1  
 5.845000000000000E9    -1.956404759484403E1  -1.327334397086295E1  
 5.846250000000000E9    -1.942500184936140E1  -1.380111771046635E1  
 5.847500000000000E9    -1.928350532706514E1  -1.435880610412777E1  
 5.848750000000000E9    -1.915443834151452E1  -1.488481203253629E1  
 5.850000000000000E9    -1.903826537787427E1  -1.541241529854242E1  
 5.851250000000000E9    -1.893427819727041E1  -1.589346058724451E1  
 5.852500000000000E9    -1.884798095482276E1  -1.627645561007372E1  
 5.853750000000000E9    -1.876521053954359E1  -1.660252556001429E1  
 5.855000000000000E9    -1.868617068969222E1  -1.684013929770241E1  
 5.856250000000000E9    -1.860745518947510E1  -1.708922357967676E1  
 5.857500000000000E9    -1.852871491734189E1  -1.734676674197118E1  
 5.858750000000000E9    -1.844987243231133E1  -1.761610384352909E1  
