#  HZ   S   DB   R     50.00 
! Rohde & Schwarz ZVA24 4Ports - Version 3.60 - 1145.1110k28 SN: 101513
! Date: 2019-09-25 19:01:51
! Measurements: S33 S43 S34 S44 
! 
 2.000000000000000E9    -1.633494078563644E1   6.774978580341833E1   2.175339107338298E1  -7.063557759527002  -2.642124542390625E1  -1.452148798256353E2  -1.542373400761350E1   2.179328538905840E1  
 2.002500000000000E9    -1.624589563076023E1   6.676145758630692E1   2.176211833980413E1  -7.775882957991984  -2.638372015551713E1  -1.462023510414614E2  -1.549774931181878E1   2.095059290240554E1  
 2.005000000000000E9    -1.625403106047621E1   6.577565788413129E1   2.175454916774424E1  -8.439054990798645  -2.645341215754329E1  -1.471861781058161E2  -1.539061609914021E1   2.010837725275504E1  
 2.007500000000000E9    -1.618558529694201E1   6.495386417545586E1   2.175184837192583E1  -9.258458940043347  -2.635260856920901E1  -1.477817521465196E2  -1.548305600787354E1   2.041079909191257E1  
 2.010000000000000E9    -1.624592911539993E1   6.475944402539845E1   2.178023949828003E1  -9.697769968633972  -2.633050707870761E1  -1.483613653040457E2  -1.546652542255625E1   2.052511532117416E1  
 2.012500000000000E9    -1.617225197690444E1   6.243592126109775E1   2.174953481578271E1  -1.055674589356645E1  -2.640720377739415E1  -1.495445537890564E2  -1.534986021524875E1   2.024886766674857E1  
 2.015000000000000E9    -1.625078153154398E1   6.200337094831205E1   2.171656740660023E1  -1.139909637314731E1  -2.642381500483895E1  -1.497154259615034E2  -1.523124515196836E1   2.019165542113541E1  
 2.017500000000000E9    -1.615291265224568E1   6.126052756820342E1   2.177344216902098E1  -1.186681979827452E1  -2.645446175051150E1  -1.501752037352604E2  -1.552746186520581E1   1.996019683331975E1  
 2.020000000000000E9    -1.633338414785966E1   6.010520282401286E1   2.174344468705907E1  -1.270602529496394E1  -2.640340956682649E1  -1.511647164448284E2  -1.554350420079320E1   2.098086655017412E1  
 2.022500000000000E9    -1.616428835150668E1   5.876022027378087E1   2.174338015111699E1  -1.334683060895574E1  -2.641903955107079E1  -1.514842950087966E2  -1.543042783254821E1   2.102260662030978E1  
 2.025000000000000E9    -1.616787494032680E1   5.689967646799511E1   2.174104891575910E1  -1.420461321495835E1  -2.640868609749195E1  -1.522827479342325E2  -1.552448518074820E1   2.058862372613896E1  
 2.027500000000000E9    -1.619525046810070E1   5.646702852622379E1   2.173100606674489E1  -1.483743775143950E1  -2.638495257235228E1  -1.526882516144212E2  -1.565057530440211E1   2.056848735976555E1  
 2.030000000000000E9    -1.603998622224573E1   5.504109511329182E1   2.175827468258238E1  -1.559982487753801E1  -2.637099348425157E1  -1.537693587424013E2  -1.563047959646105E1   2.057934992865445E1  
 2.032500000000000E9    -1.611152948966640E1   5.374283483121686E1   2.173992523171953E1  -1.620871385260761E1  -2.645049200388246E1  -1.545840058524362E2  -1.556537506714379E1   2.038506838711636E1  
 2.035000000000000E9    -1.602827592987727E1   5.346680002865173E1   2.174689144464308E1  -1.699602428537068E1  -2.632347508512700E1  -1.555668774649821E2  -1.561318556140441E1   1.970915136245809E1  
 2.037500000000000E9    -1.607457229146613E1   5.194642183968520E1   2.171867520971832E1  -1.754385026370692E1  -2.639359588018072E1  -1.555800200905185E2  -1.561468913198691E1   1.934123262166664E1  
 2.040000000000000E9    -1.625402454148004E1   5.089491188504898E1   2.173418259021539E1  -1.837991328393979E1  -2.647036245195078E1  -1.563709134171760E2  -1.552035384595520E1   1.824430207145347E1  
 2.042500000000000E9    -1.605175438046296E1   4.972425634980453E1   2.173225213441686E1  -1.906711580353053E1  -2.643687817735598E1  -1.571505603533967E2  -1.551028471771452E1   1.919001171337879E1  
 2.045000000000000E9    -1.611617903390780E1   4.766256298973022E1   2.171928076346462E1  -1.984144265190315E1  -2.646639749253975E1  -1.578158842849589E2  -1.558682371310119E1   1.875967719241187E1  
 2.047500000000000E9    -1.595711503436969E1   4.787036958682432E1   2.174280470428412E1  -2.054984977099993E1  -2.646516048234122E1  -1.580067275655217E2  -1.548879471908692E1   2.025751130831354E1  
 2.050000000000000E9    -1.604941750511550E1   4.704102683950073E1   2.174907189447076E1  -2.134378543453842E1  -2.641735426780128E1  -1.588852993561178E2  -1.566180039964186E1   1.995466746351704E1  
 2.052500000000000E9    -1.588915106723746E1   4.496313996698898E1   2.174360212938338E1  -2.197528819904075E1  -2.639507574711359E1  -1.593879879931068E2  -1.567164599223547E1   2.013376970351850E1  
 2.055000000000000E9    -1.598190023197570E1   4.489245778231712E1   2.172263684994485E1  -2.276278597464837E1  -2.633424162489206E1  -1.603638208328415E2  -1.580896670386746E1   1.990422517249451E1  
 2.057500000000000E9    -1.602476563171873E1   4.319422237321605E1   2.172528560568792E1  -2.347324530961892E1  -2.634831342311433E1  -1.613820690509700E2  -1.586684959566426E1   1.898429590338311E1  
 2.060000000000000E9    -1.595206789871045E1   4.217972453171198E1   2.173684952686587E1  -2.405112260982379E1  -2.642604894521764E1  -1.622321889700499E2  -1.577669210798463E1   1.973532004889358E1  
 2.062500000000000E9    -1.584457295219202E1   4.013873413812098E1   2.173678011048573E1  -2.478908511807332E1  -2.641722511782897E1  -1.626448936735451E2  -1.590893971419348E1   1.847928623003473E1  
 2.065000000000000E9    -1.572910775832809E1   4.051627624644438E1   2.173632541579800E1  -2.558200570676579E1  -2.643922375711625E1  -1.631186821862927E2  -1.588326276804148E1   1.800288502210626E1  
 2.067500000000000E9    -1.581978928098179E1   3.931517770615469E1   2.175159897775647E1  -2.622754821062428E1  -2.635620640158587E1  -1.641180462350107E2  -1.575418715493166E1   1.755846675074849E1  
 2.070000000000000E9    -1.589117699264299E1   3.701697857597623E1   2.172019455489372E1  -2.696775883080428E1  -2.641885663433749E1  -1.647187435934918E2  -1.570026152777708E1   1.811041695742395E1  
 2.072500000000000E9    -1.582312209504732E1   3.738249111615586E1   2.172400813993038E1  -2.763673786791279E1  -2.650285835691242E1  -1.650498102573754E2  -1.596304458476898E1   1.820287301196766E1  
 2.075000000000000E9    -1.601475412848122E1   3.604997348319699E1   2.171224136303468E1  -2.833774266710263E1  -2.635122815949637E1  -1.658277909381869E2  -1.586316823303929E1   1.799270003557969E1  
 2.077500000000000E9    -1.584489825221672E1   3.515381286988574E1   2.174050150423185E1  -2.897764768335064E1  -2.638286956230265E1  -1.659094743167229E2  -1.586617560358969E1   1.839249195038493E1  
 2.080000000000000E9    -1.568512557907826E1   3.284834809953855E1   2.174679574509436E1  -2.972483090822712E1  -2.640135450214063E1  -1.670317630711276E2  -1.587719216645364E1   1.774550731041725E1  
 2.082500000000000E9    -1.579440732505996E1   3.217623822904290E1   2.172172764959560E1  -3.067489277814984E1  -2.644018388002447E1  -1.676449996233073E2  -1.583964629563683E1   1.852412272569543E1  
 2.085000000000000E9    -1.596813471423372E1   3.121886448021923E1   2.173663170691793E1  -3.128682445309637E1  -2.636901712978454E1  -1.685134342809966E2  -1.613587612218165E1   1.830966241560546E1  
 2.087500000000000E9    -1.581382409822591E1   3.013335592303286E1   2.172388755293391E1  -3.191341550776528E1  -2.639855228497552E1  -1.694077842839824E2  -1.603401350043026E1   1.781704183621654E1  
 2.090000000000000E9    -1.574959532069445E1   2.950027173161683E1   2.175374748104494E1  -3.264774995513754E1  -2.639478494174078E1  -1.696677545830758E2  -1.609385157808136E1   1.779369256977402E1  
 2.092500000000000E9    -1.566640999099586E1   2.818173936228407E1   2.172767225396187E1  -3.338656007092319E1  -2.639013939748033E1  -1.705658830487120E2  -1.600269973096864E1   1.729100048406463E1  
 2.095000000000000E9    -1.558012024995139E1   2.700910395595288E1   2.172271085074727E1  -3.410772725292708E1  -2.643870432890810E1  -1.716659943077330E2  -1.605659876155428E1   1.629666638077624E1  
 2.097500000000000E9    -1.577529011851533E1   2.682189951048215E1   2.172677513313392E1  -3.481523801993203E1  -2.641839020033905E1  -1.719585194446019E2  -1.619868281399848E1   1.596084818202802E1  
 2.100000000000000E9    -1.576371295959308E1   2.547956315527413E1   2.172058794342694E1  -3.550663220685366E1  -2.643926031492635E1  -1.720977401427074E2  -1.587467252166740E1   1.645078085388780E1  
 2.102500000000000E9    -1.561756133091138E1   2.437876142137754E1   2.173851913995744E1  -3.625558318013576E1  -2.639460665538549E1  -1.729221533704724E2  -1.605778969912321E1   1.649654416532944E1  
 2.105000000000000E9    -1.568546623570444E1   2.295404390389053E1   2.173395447337473E1  -3.706123443967690E1  -2.644411152922132E1  -1.739857513859222E2  -1.590918602920569E1   1.604655336566139E1  
 2.107500000000000E9    -1.567099795294802E1   2.066207124556136E1   2.171030427495535E1  -3.772939357213588E1  -2.639081253464466E1  -1.741348137287221E2  -1.591826045612129E1   1.679103688805839E1  
 2.110000000000000E9    -1.565655398815614E1   2.044684025736970E1   2.171127268457025E1  -3.840268159865138E1  -2.641909230389689E1  -1.749382902162191E2  -1.585711496655153E1   1.731220291206726E1  
 2.112500000000000E9    -1.573113203661608E1   1.872841009134440E1   2.172951589343650E1  -3.915848327531064E1  -2.639779977341744E1  -1.756134168428891E2  -1.624297527925314E1   1.661038819945618E1  
 2.115000000000000E9    -1.553099613430320E1   1.827277314405434E1   2.171680503844484E1  -3.988941158882679E1  -2.634046832527575E1  -1.764281873973257E2  -1.617589267747361E1   1.698784406282723E1  
 2.117500000000000E9    -1.558176141491462E1   1.776681732621786E1   2.169537106177626E1  -4.046956198516067E1  -2.642965243724015E1  -1.772957931428905E2  -1.616345735962105E1   1.742679744959689E1  
 2.120000000000000E9    -1.566344320767343E1   1.732173663909205E1   2.171220587359903E1  -4.107579554513032E1  -2.635619814485009E1  -1.774884848472273E2  -1.624822077541160E1   1.671517384690271E1  
 2.122500000000000E9    -1.554931568009480E1   1.489510324837360E1   2.169396151634501E1  -4.177855270049103E1  -2.635684242716263E1  -1.788563684111177E2  -1.620630418875404E1   1.478829027093154E1  
 2.125000000000000E9    -1.563038765916457E1   1.345442572414232E1   2.169882830853157E1  -4.275619189343482E1  -2.639447791476027E1  -1.791551742284603E2  -1.609858675163985E1   1.525662396111456E1  
 2.127500000000000E9    -1.555139160903754E1   1.286823372461864E1   2.173609858752749E1  -4.338083747370186E1  -2.635647824379878E1  -1.796847561822104E2  -1.613066968412393E1   1.490533100453217E1  
 2.130000000000000E9    -1.546551482675714E1   1.072639887243091E1   2.170254784203015E1  -4.413566678498699E1  -2.641641742714100E1   1.796575445228876E2  -1.609353414915923E1   1.475384411279944E1  
 2.132500000000000E9    -1.549176577852390E1   9.991872802508445   2.170282671700496E1  -4.493997236308248E1  -2.643419856046835E1   1.789690128701247E2  -1.613678709284293E1   1.491617245548653E1  
 2.135000000000000E9    -1.539639061468654E1   1.039239480515319E1   2.170495472452353E1  -4.556917163927530E1  -2.643165264331485E1   1.785988789980637E2  -1.606368956876155E1   1.581633950160109E1  
 2.137500000000000E9    -1.544148220308690E1   8.787301937656109   2.171388890760920E1  -4.626894708899966E1  -2.637680834952196E1   1.771693377069617E2  -1.592427094264898E1   1.606651604764461E1  
 2.140000000000000E9    -1.550746465879558E1   7.195590057635335   2.172181488196329E1  -4.701176277658028E1  -2.643743898578333E1   1.763950455710838E2  -1.594832962925546E1   1.573981651596380E1  
 2.142500000000000E9    -1.532992370298522E1   6.420428378767277   2.169463191978700E1  -4.764246136278249E1  -2.647799811049172E1   1.758398635290633E2  -1.605505358996274E1   1.590192567825835E1  
 2.145000000000000E9    -1.545154381158581E1   5.198673742077239   2.171875545090073E1  -4.853009865118943E1  -2.641720902483977E1   1.754775433999047E2  -1.608766800418934E1   1.694524785930841E1  
 2.147500000000000E9    -1.542677451445896E1   4.483866225452220   2.172110584057961E1  -4.894685408572809E1  -2.640115984421680E1   1.746959025510127E2  -1.621228403391414E1   1.577706406763998E1  
 2.150000000000000E9    -1.554129964746198E1   2.583908492093241   2.170011383462228E1  -4.973694801213910E1  -2.636175461319341E1   1.743573807296690E2  -1.635882302236001E1   1.563716476975909E1  
 2.152500000000000E9    -1.540682051526011E1   1.395917991725665   2.169542834036584E1  -5.049645651111621E1  -2.645917559461046E1   1.738777715345776E2  -1.638445466968187E1   1.629879870450151E1  
 2.155000000000000E9    -1.541315611522257E1   1.311323064503876   2.171504457006907E1  -5.125863420523074E1  -2.641697623885048E1   1.728463320663822E2  -1.634774817460561E1   1.419480754277645E1  
 2.157500000000000E9    -1.535894370431102E1  -7.475242354381504E-1   2.172114736576491E1  -5.203958672000950E1  -2.636047155984385E1   1.723182168091022E2  -1.639313040495783E1   1.438179399244166E1  
 2.160000000000000E9    -1.529821878452422E1  -1.777328698338098   2.170979549768074E1  -5.270007158242504E1  -2.641019733972240E1   1.717546874133672E2  -1.632540163075767E1   1.412425499146796E1  
 2.162500000000000E9    -1.550810560039520E1  -1.939227700300534   2.171095073836368E1  -5.335770527518778E1  -2.650434214527524E1   1.707162472677489E2  -1.617114604375129E1   1.332498562222924E1  
 2.165000000000000E9    -1.542322788499592E1  -3.524382930624387   2.171523405385455E1  -5.413592002330415E1  -2.639664939567032E1   1.702193907747646E2  -1.618215205296531E1   1.461228057541959E1  
 2.167500000000000E9    -1.541060259677523E1  -4.686963823644853   2.171363201032297E1  -5.495035740099930E1  -2.650240111933837E1   1.691210259450083E2  -1.607302595277529E1   1.471740776197223E1  
 2.170000000000000E9    -1.542962068461162E1  -4.731168979576424   2.167022676385219E1  -5.558008482301132E1  -2.643800638220323E1   1.692328544148717E2  -1.621017692873150E1   1.599141841715237E1  
 2.172500000000000E9    -1.539061846025695E1  -6.121265665792444   2.167067631742773E1  -5.622500710502850E1  -2.637082045043075E1   1.679706565386648E2  -1.630978416711074E1   1.604512696998092E1  
 2.175000000000000E9    -1.526554720924542E1  -6.713237163605635   2.168306616611037E1  -5.705650934511858E1  -2.632065334217857E1   1.677794550082774E2  -1.646513167353993E1   1.702306439824906E1  
 2.177500000000000E9    -1.537355580642353E1  -9.488382816573438   2.164989659977029E1  -5.756851572320753E1  -2.637840200271105E1   1.667525838924036E2  -1.631751448238008E1   1.620151123693805E1  
 2.180000000000000E9    -1.537573575307634E1  -1.086338060155736E1   2.169452169811422E1  -5.853905428992309E1  -2.650538385483602E1   1.662879241852891E2  -1.629634296742389E1   1.533190107861711E1  
 2.182500000000000E9    -1.536265493104115E1  -9.815086821817941   2.167672274313148E1  -5.912641091841110E1  -2.638074359379153E1   1.649898896679842E2  -1.637036779479835E1   1.600088072553978E1  
 2.185000000000000E9    -1.536389669997346E1  -1.214634207141072E1   2.168731275889247E1  -5.978984727665164E1  -2.645737477491432E1   1.645812956623352E2  -1.637606328621533E1   1.363472690978497E1  
 2.187500000000000E9    -1.534871188996796E1  -1.357639024296527E1   2.170511789202343E1  -6.041467143967531E1  -2.641197067565876E1   1.638728489490329E2  -1.651875082863064E1   1.359423982960461E1  
 2.190000000000000E9    -1.528850263635108E1  -1.414615854509436E1   2.168770407028591E1  -6.116554640137907E1  -2.634913042960100E1   1.637896395755005E2  -1.625648853990957E1   1.380308174299807E1  
 2.192500000000000E9    -1.541898578435512E1  -1.577463788433052E1   2.169456096965354E1  -6.176870375705425E1  -2.643351359649302E1   1.629193875106761E2  -1.621911822037862E1   1.268988427389914E1  
 2.195000000000000E9    -1.543119663349594E1  -1.568586697625959E1   2.168181298381698E1  -6.260780513734469E1  -2.644796195186330E1   1.619609964005096E2  -1.618046263508577E1   1.248638475831308E1  
 2.197500000000000E9    -1.528635475628946E1  -1.767761719672105E1   2.170194974017339E1  -6.339101198786815E1  -2.643882986752658E1   1.613458933296669E2  -1.618062391896671E1   1.382134003983939E1  
 2.200000000000000E9    -1.535534712764599E1  -1.840869938036595E1   2.167325995663813E1  -6.428146378657702E1  -2.641997327195590E1   1.606794394587240E2  -1.609541801061451E1   1.438493376073119E1  
 2.202500000000000E9    -1.525230822466880E1  -1.995686092282995E1   2.169482810932058E1  -6.483529803681391E1  -2.636554941664960E1   1.606279359643547E2  -1.608495656973338E1   1.480381565219608E1  
 2.205000000000000E9    -1.541970244002518E1  -1.936665462812197E1   2.168433815191007E1  -6.550062910704727E1  -2.640220662119980E1   1.591852743102089E2  -1.623053434260858E1   1.397058625571066E1  
 2.207500000000000E9    -1.518750510794396E1  -2.226335410336014E1   2.167041077851334E1  -6.623593802840763E1  -2.642806830478652E1   1.593054842878174E2  -1.641588158129150E1   1.535342607149279E1  
 2.210000000000000E9    -1.543313614214471E1  -2.187730919742917E1   2.169273447492071E1  -6.694925778940466E1  -2.644735604811292E1   1.581429854556251E2  -1.651860637640411E1   1.450150453034396E1  
 2.212500000000000E9    -1.524006442779217E1  -2.309549115196024E1   2.167746897407324E1  -6.756577736199867E1  -2.627698982975289E1   1.573840501929963E2  -1.672300800448338E1   1.438512951026861E1  
 2.215000000000000E9    -1.545549299662260E1  -2.399639026758933E1   2.168690919967681E1  -6.820119454010045E1  -2.640900803538044E1   1.572090759356966E2  -1.664677832506680E1   1.376588438824703E1  
 2.217500000000000E9    -1.539103929049096E1  -2.536273990628175E1   2.168018166545038E1  -6.894006484445214E1  -2.642698791868590E1   1.557716105546998E2  -1.658454804299983E1   1.202960220960937E1  
 2.220000000000000E9    -1.528424005158773E1  -2.716221428339372E1   2.168136693451966E1  -6.962891719680594E1  -2.641214638043192E1   1.549625463490069E2  -1.652063687650065E1   1.075933696273502E1  
 2.222500000000000E9    -1.533694184576982E1  -2.879707889878379E1   2.168281501474129E1  -7.060481341709283E1  -2.653885394461003E1   1.551238843292267E2  -1.633313998392168E1   1.168273967806536E1  
 2.225000000000000E9    -1.534546838273309E1  -2.895160858113517E1   2.171266542264739E1  -7.132859354966105E1  -2.645036953762075E1   1.542978090603235E2  -1.636354035456528E1   1.191254196104299E1  
 2.227500000000000E9    -1.532229793503883E1  -3.107074662801827E1   2.168225326378240E1  -7.200889010369340E1  -2.645707555471691E1   1.534896607292245E2  -1.623166389830114E1   1.244763679183416E1  
 2.230000000000000E9    -1.518690181257013E1  -3.024727115174584E1   2.167968396028518E1  -7.252031223696407E1  -2.650448401706369E1   1.534107776632391E2  -1.597454400962245E1   1.320215566906364E1  
 2.232500000000000E9    -1.517840055231886E1  -3.193459746000101E1   2.166989517232372E1  -7.350641074754996E1  -2.650123100043808E1   1.521714799068438E2  -1.606602212202311E1   1.367017491240121E1  
 2.235000000000000E9    -1.524941485300274E1  -3.408947902544099E1   2.166667539302540E1  -7.416117122802527E1  -2.642448040865311E1   1.514193152524391E2  -1.633026804723221E1   1.341311197231191E1  
 2.237500000000000E9    -1.518356364888342E1  -3.437615498114339E1   2.166280339385468E1  -7.479374114909555E1  -2.643789606952479E1   1.503044496243198E2  -1.621361061786877E1   1.281478302906842E1  
 2.240000000000000E9    -1.520733209612223E1  -3.593776448765757E1   2.166980034647175E1  -7.548222561632531E1  -2.635682588766900E1   1.500519358590532E2  -1.660819712056047E1   1.282826969801650E1  
 2.242500000000000E9    -1.521570302198363E1  -3.691367450459972E1   2.165769142874829E1  -7.617447531240551E1  -2.645128305519426E1   1.492176434499866E2  -1.676665186436339E1   1.285787486758209E1  
