#  HZ   S   DB   R     50.00 
! Rohde & Schwarz ZVA24 4Ports - Version 3.60 - 1145.1110k28 SN: 101513
! Date: 2019-09-25 19:20:51
! Measurements: S33 S43 S34 S44 
! 
 2.000000000000000E9    -1.572992093443038E1   8.311050803507091E1   2.180825514553649E1  -9.430123641904023  -2.636423390556783E1  -1.477255525213743E2  -1.856768822961500E1   1.325376904662798E1  
 2.002500000000000E9    -1.572553881085799E1   8.124598615159034E1   2.181643997457182E1  -1.009080609785404E1  -2.632476472507720E1  -1.488397152481730E2  -1.851729196716373E1   1.133299867414852E1  
 2.005000000000000E9    -1.569449807563769E1   8.093959946908049E1   2.179028622389364E1  -1.077885519081496E1  -2.630792360629246E1  -1.495437705431357E2  -1.852699676593441E1   1.125794674863560E1  
 2.007500000000000E9    -1.553259028542977E1   7.960542506109309E1   2.180816757794385E1  -1.154647362905982E1  -2.630059334797659E1  -1.497307842432648E2  -1.852371621449549E1   1.172028292561463E1  
 2.010000000000000E9    -1.563274062806074E1   7.852684228177370E1   2.183332148053244E1  -1.211817393362053E1  -2.630881266311482E1  -1.509341573213172E2  -1.836196889821926E1   1.090230954373297E1  
 2.012500000000000E9    -1.544781328485492E1   7.671967885533510E1   2.180713471724006E1  -1.288122407067387E1  -2.634461954231691E1  -1.517425827235713E2  -1.839656811244010E1   1.026161576117139E1  
 2.015000000000000E9    -1.571517452550754E1   7.532327239887532E1   2.180405881551438E1  -1.370241996983175E1  -2.638204713588346E1  -1.518768857537461E2  -1.829200572944937E1   1.019996418457101E1  
 2.017500000000000E9    -1.557904805588498E1   7.456078147553545E1   2.182276673199125E1  -1.431867785674577E1  -2.633079312262081E1  -1.527020050738178E2  -1.852959708210261E1   1.074706609204064E1  
 2.020000000000000E9    -1.554108764515241E1   7.428067375853611E1   2.180648157584065E1  -1.509074778250288E1  -2.634688830602026E1  -1.531347984635866E2  -1.849006554691002E1   1.124843415727271E1  
 2.022500000000000E9    -1.544196785430792E1   7.253797843658079E1   2.179157562057653E1  -1.583068986253821E1  -2.630375927173507E1  -1.538424768955119E2  -1.866472724304644E1   1.030112920079491E1  
 2.025000000000000E9    -1.543304305088396E1   7.046655356743474E1   2.179170338553920E1  -1.660797622154742E1  -2.640055492430527E1  -1.543656909130573E2  -1.854246141219125E1   1.167047950861849E1  
 2.027500000000000E9    -1.561411341711947E1   7.005603905845511E1   2.178727004655949E1  -1.721173747674239E1  -2.629981814928304E1  -1.552190623089809E2  -1.866963741452818E1   1.078112811139920E1  
 2.030000000000000E9    -1.532454544231023E1   6.880788415141103E1   2.179828573240802E1  -1.792251393123607E1  -2.630587372956859E1  -1.557470776711228E2  -1.872478266947494E1   1.007324986959884E1  
 2.032500000000000E9    -1.544616685913267E1   6.719210544511965E1   2.178204009244601E1  -1.868724939145715E1  -2.627808857101076E1  -1.570021425006420E2  -1.891905784815890E1   9.785579534641183  
 2.035000000000000E9    -1.537575865254219E1   6.688582193147028E1   2.179443981289881E1  -1.944271022891500E1  -2.627951792624988E1  -1.576579633749001E2  -1.873854929499481E1   1.000312643443717E1  
 2.037500000000000E9    -1.535072915403443E1   6.543386266559588E1   2.177907606189051E1  -1.996084125139828E1  -2.628020923143727E1  -1.580015967085806E2  -1.870726892363845E1   9.722098578260145  
 2.040000000000000E9    -1.570006392297202E1   6.421473385578410E1   2.179227972000841E1  -2.070390201696116E1  -2.636326792696552E1  -1.584071263149619E2  -1.883584829905555E1   9.671891333041486  
 2.042500000000000E9    -1.544358193861312E1   6.282256005020775E1   2.179275776900061E1  -2.147746648193536E1  -2.636802253970007E1  -1.589636159816814E2  -1.884390086549514E1   9.216085819031921  
 2.045000000000000E9    -1.552433434572905E1   6.188852212302182E1   2.178483578031730E1  -2.227445377259719E1  -2.637873817786738E1  -1.598367328167537E2  -1.859467253733668E1   9.691391144853878  
 2.047500000000000E9    -1.534189792301061E1   6.086797542759062E1   2.178450322736228E1  -2.301691875526947E1  -2.637733143452179E1  -1.601739741543980E2  -1.879906848587590E1   1.028592395741941E1  
 2.050000000000000E9    -1.528253847873045E1   6.003549868147339E1   2.178877880697253E1  -2.364338367335366E1  -2.635018928333257E1  -1.609733911223076E2  -1.892160709603643E1   9.703541918580426  
 2.052500000000000E9    -1.531944785279176E1   5.785095345850107E1   2.177753830708463E1  -2.437519517036827E1  -2.633509173155276E1  -1.620261100593692E2  -1.885932497248542E1   1.034224092351453E1  
 2.055000000000000E9    -1.522480579841315E1   5.771968108045044E1   2.177064389655679E1  -2.520730005114924E1  -2.626148208334597E1  -1.625678130093255E2  -1.891913467898125E1   1.090568022461933E1  
 2.057500000000000E9    -1.534668894875874E1   5.591559754653075E1   2.179101773242280E1  -2.580583771545669E1  -2.632681328266415E1  -1.632544457017351E2  -1.886927648932332E1   8.615097410722608  
 2.060000000000000E9    -1.534858212804247E1   5.498365889271795E1   2.178885617145446E1  -2.656688884434519E1  -2.627984432823219E1  -1.639726447311979E2  -1.904309579330816E1   9.962585976349017  
 2.062500000000000E9    -1.528034064745121E1   5.355493597981141E1   2.178299031928028E1  -2.724746762983050E1  -2.628550115799650E1  -1.647569320880907E2  -1.915098955229756E1   8.860272944842317  
 2.065000000000000E9    -1.523118591451620E1   5.262592555728990E1   2.176209943176847E1  -2.803462112794876E1  -2.633882036128926E1  -1.657473872319954E2  -1.912392388830604E1   7.735432735916041  
 2.067500000000000E9    -1.520420291476391E1   5.213603857922811E1   2.181290319651336E1  -2.861019403516556E1  -2.635014175108591E1  -1.662279954742542E2  -1.906486379637515E1   8.794615486015148  
 2.070000000000000E9    -1.520783598256897E1   4.978943075884799E1   2.176527652993595E1  -2.946334379748311E1  -2.635588756031680E1  -1.669125134104158E2  -1.898012701550173E1   9.719047820971516  
 2.072500000000000E9    -1.511079581149783E1   4.963807072370256E1   2.176571498895887E1  -3.023465612512543E1  -2.637828199361200E1  -1.677878779520054E2  -1.915505358248745E1   8.451663199851394  
 2.075000000000000E9    -1.523979841180046E1   4.873768816865629E1   2.176062417473862E1  -3.075752031456461E1  -2.634940180573569E1  -1.677816767044643E2  -1.926870242183691E1   8.604258977936089  
 2.077500000000000E9    -1.517080461263585E1   4.780360510279849E1   2.178613305612477E1  -3.147794388666984E1  -2.636543370441440E1  -1.686214660283465E2  -1.925587377281728E1   8.813938847648641  
 2.080000000000000E9    -1.513921060265997E1   4.501149285951244E1   2.177674759216786E1  -3.229187450286123E1  -2.630200242742908E1  -1.690885732432081E2  -1.907927111352632E1   7.303424530205250  
 2.082500000000000E9    -1.510687694427239E1   4.453708936102252E1   2.175650759180719E1  -3.313937790379094E1  -2.632817003565675E1  -1.697242594488107E2  -1.923266476512438E1   8.324802854726697  
 2.085000000000000E9    -1.525981766879622E1   4.314640631759012E1   2.177094853881402E1  -3.372213445081002E1  -2.637549577572907E1  -1.705636010333037E2  -1.915753631235177E1   8.143474228178860  
 2.087500000000000E9    -1.507924455760727E1   4.215679325079424E1   2.175606068216809E1  -3.430142842784566E1  -2.631063974072071E1  -1.716860498775108E2  -1.935159663647296E1   7.928219162905910  
 2.090000000000000E9    -1.504598503922581E1   4.184165487585395E1   2.177556168907388E1  -3.514233719951071E1  -2.631790424456757E1  -1.719797250870461E2  -1.942902579852505E1   7.139685611989462  
 2.092500000000000E9    -1.503319027768027E1   3.952626618964059E1   2.175013850697878E1  -3.581920342216166E1  -2.636651499992628E1  -1.729249367924951E2  -1.933160733760556E1   6.454120685590869  
 2.095000000000000E9    -1.498680640152855E1   3.849921282704091E1   2.175351752877419E1  -3.656709885487172E1  -2.631530597214331E1  -1.734529802610158E2  -1.942699692581937E1   6.866936006024950  
 2.097500000000000E9    -1.509141976739677E1   3.917752069772980E1   2.177058544528029E1  -3.744065043049292E1  -2.640946143855360E1  -1.738220442332615E2  -1.965817627288967E1   5.988012732845311  
 2.100000000000000E9    -1.501289779191316E1   3.693399075779224E1   2.175695709003037E1  -3.790261214231905E1  -2.637821823507346E1  -1.747335712940622E2  -1.917386118830240E1   5.744208116414380  
 2.102500000000000E9    -1.491912475459598E1   3.586218116401197E1   2.179280930164389E1  -3.885873844733730E1  -2.630585908709584E1  -1.751643538579294E2  -1.935311569031934E1   7.535107095447556  
 2.105000000000000E9    -1.500629717681003E1   3.447748982457043E1   2.175955332292000E1  -3.953543470077853E1  -2.639379110833619E1  -1.758883305126479E2  -1.921246144650033E1   6.906539574916456  
 2.107500000000000E9    -1.503768671859524E1   3.257544865079073E1   2.175040571312140E1  -4.023621653444461E1  -2.632913801418799E1  -1.766274825964631E2  -1.942976357455871E1   6.874782396818912  
 2.110000000000000E9    -1.495980348871212E1   3.215022437915143E1   2.172987061480300E1  -4.090015641577890E1  -2.632741117990155E1  -1.776838248494521E2  -1.928313622713243E1   6.231560118096496  
 2.112500000000000E9    -1.503958593248501E1   3.042034686410935E1   2.174237014672496E1  -4.167377556796089E1  -2.627506777672068E1  -1.779609347798771E2  -1.957221823051696E1   6.178761442387310  
 2.115000000000000E9    -1.484287616106523E1   2.994656015440638E1   2.175022100555330E1  -4.230201345145147E1  -2.628012475132561E1  -1.787812611410932E2  -1.956352541944848E1   7.651748797198186  
 2.117500000000000E9    -1.487310015434096E1   2.880130814074255E1   2.173824578490572E1  -4.302393017541142E1  -2.637759912940273E1  -1.795424460465119E2  -1.964507066273888E1   7.900608796247755  
 2.120000000000000E9    -1.490212880589227E1   2.810883889984803E1   2.174319973581041E1  -4.363399579248127E1  -2.633437985147434E1   1.798325069815988E2  -1.972683652786103E1   6.513744768882680  
 2.122500000000000E9    -1.483335919103949E1   2.655094721434020E1   2.173913948547828E1  -4.430121475551933E1  -2.636548770233068E1   1.789476494697690E2  -1.958037298432194E1   4.257837208154689  
 2.125000000000000E9    -1.485689163654681E1   2.500040888185867E1   2.172584971511628E1  -4.528494856393452E1  -2.638026000693797E1   1.784810031459828E2  -1.955359430686670E1   4.473402627043353  
 2.127500000000000E9    -1.476801764503350E1   2.436991057088432E1   2.177603611674441E1  -4.593632996062743E1  -2.629723278361958E1   1.779160863241279E2  -1.961031527449816E1   5.262994948896053  
 2.130000000000000E9    -1.480188823275711E1   2.277387272948182E1   2.175001983185425E1  -4.669266491527105E1  -2.640710928101841E1   1.771949208007459E2  -1.951394705199300E1   4.891383796168367  
 2.132500000000000E9    -1.478221726243702E1   2.097159742077015E1   2.172350410274392E1  -4.739795246513475E1  -2.636199533528472E1   1.769773427557549E2  -1.971670295656933E1   5.283873266831233  
 2.135000000000000E9    -1.463344085649236E1   2.154234907196578E1   2.175215255583940E1  -4.802830362313154E1  -2.637163223859282E1   1.759301973392799E2  -1.941411676371995E1   5.349987838899531  
 2.137500000000000E9    -1.476744287602758E1   2.032737637553903E1   2.175318006879934E1  -4.879313042735058E1  -2.630310637557408E1   1.754686927770321E2  -1.929792254300777E1   6.693723670302289  
 2.140000000000000E9    -1.478081163556500E1   1.797459232973012E1   2.177300609921784E1  -4.946354555685106E1  -2.627038990665123E1   1.747065920158664E2  -1.929559379318700E1   6.048817815670003  
 2.142500000000000E9    -1.456423560026566E1   1.639958413533723E1   2.174495702778169E1  -5.017607125117399E1  -2.636492549307311E1   1.738306969587107E2  -1.951268207063371E1   5.574199365672752  
 2.145000000000000E9    -1.462556965385364E1   1.583456715810022E1   2.174840907631219E1  -5.104360671230809E1  -2.637078371972089E1   1.733668426288215E2  -1.943306603979723E1   7.544896003351598  
 2.147500000000000E9    -1.464455536850682E1   1.479888239963837E1   2.174392751407417E1  -5.140834570915968E1  -2.635824291534117E1   1.724081739180982E2  -1.982187730674870E1   6.873530793024271  
 2.150000000000000E9    -1.476758633593989E1   1.382777851377326E1   2.172744699777947E1  -5.233442433030751E1  -2.639330604915374E1   1.719561052046353E2  -1.968595008216528E1   6.364716020304273  
 2.152500000000000E9    -1.469838820531954E1   1.177058077143589E1   2.171846680970029E1  -5.314698473022165E1  -2.637442060769701E1   1.712828681911201E2  -1.991394062493500E1   7.263846766057852  
 2.155000000000000E9    -1.469246684004913E1   1.229763525421340E1   2.174413787864935E1  -5.378094112388877E1  -2.635159645950115E1   1.700361207312250E2  -1.974379315172482E1   5.280326129889421  
 2.157500000000000E9    -1.457460461873519E1   1.063525814524788E1   2.174834800879516E1  -5.451820441438447E1  -2.634525595032168E1   1.700007776878315E2  -1.990633732345253E1   4.338245518702956  
 2.160000000000000E9    -1.450937190184306E1   8.800357193093145   2.174200975817278E1  -5.526705671159097E1  -2.637816257978360E1   1.693747979227822E2  -1.990848095006094E1   4.861376247539591  
 2.162500000000000E9    -1.467198150544916E1   8.613374084171918   2.173462437758285E1  -5.593723183178852E1  -2.640058198029664E1   1.688356070416357E2  -1.955454412391689E1   3.864726826465073  
 2.165000000000000E9    -1.458363974313356E1   7.137664927324829   2.175098353973303E1  -5.673009386988141E1  -2.635706575274638E1   1.676999113396267E2  -1.958462245473746E1   5.973775719517207  
 2.167500000000000E9    -1.469166324941446E1   6.141779708928478   2.173176460343925E1  -5.743166334001224E1  -2.640316365301095E1   1.670733990809798E2  -1.958892513624628E1   5.390454859543159  
 2.170000000000000E9    -1.464421313777245E1   5.198912648860955   2.175215481367380E1  -5.807941724200540E1  -2.640288750258957E1   1.665519141660679E2  -1.965278267760700E1   6.548365989721329  
 2.172500000000000E9    -1.472234042560736E1   3.398335701808398   2.173231152713160E1  -5.890530395781710E1  -2.637267614412704E1   1.659775648098197E2  -1.960066317412172E1   6.732973231908278  
 2.175000000000000E9    -1.449134637713239E1   1.721235101776278   2.175569164044989E1  -5.961805497117590E1  -2.631106807390387E1   1.652168216154657E2  -1.988121481495395E1   7.861589614833227  
 2.177500000000000E9    -1.461054557123206E1   5.935392862543129E-2   2.172567580149836E1  -6.018600969581218E1  -2.637855597031067E1   1.642793870569171E2  -1.995518689525404E1   8.148199707172745  
 2.180000000000000E9    -1.454945981177467E1  -1.442917461524916   2.171646469464366E1  -6.109310420733047E1  -2.625117334930965E1   1.637634139989713E2  -1.998843080597690E1   6.575365854491466  
 2.182500000000000E9    -1.444773034717269E1   1.013797417392268   2.171330992614162E1  -6.157422692804108E1  -2.635531417667088E1   1.629750509243914E2  -2.009787441725715E1   5.676214677663583  
 2.185000000000000E9    -1.453403609549500E1  -1.727650430952935   2.171680139659292E1  -6.238047218083679E1  -2.631485177278697E1   1.625768159621976E2  -1.974536055587408E1   4.213629932683991  
 2.187500000000000E9    -1.452382311288839E1  -2.954073904056962   2.173282176278463E1  -6.290816488208375E1  -2.638626167149866E1   1.615166610829431E2  -2.007122273325195E1   3.153544539666180  
 2.190000000000000E9    -1.433220345252142E1  -4.513002533126794   2.173040436616931E1  -6.371096755126285E1  -2.640672294980625E1   1.606177190116214E2  -1.977749318785257E1   4.592040289697367  
 2.192500000000000E9    -1.451671791532579E1  -5.447612931253065   2.173029543241680E1  -6.435635975523066E1  -2.635682380436758E1   1.606030865722455E2  -1.980918549336582E1   3.294208517409738  
 2.195000000000000E9    -1.455635305573536E1  -6.359332035053789   2.172920676544086E1  -6.518173331887618E1  -2.642598764486511E1   1.594478616970832E2  -1.978825858715682E1   4.046547749562370  
 2.197500000000000E9    -1.450249603828875E1  -7.545191824086416   2.173984664944859E1  -6.614700351303468E1  -2.649543053110599E1   1.586536299191264E2  -1.970608541114207E1   3.976056618378570  
 2.200000000000000E9    -1.437535997336051E1  -7.938735045044261   2.168140516280947E1  -6.679594733874728E1  -2.645739874773074E1   1.586429505111282E2  -1.971469348460184E1   5.614933328140435  
 2.202500000000000E9    -1.436124559744137E1  -1.021216590482547E1   2.171489810447940E1  -6.749970981456394E1  -2.636873877235322E1   1.581708559379797E2  -1.974960106472883E1   6.634275711222410  
 2.205000000000000E9    -1.457149985963261E1  -9.950405059653797   2.170956534215150E1  -6.828075892645725E1  -2.630986254627001E1   1.565817512872296E2  -1.997647849867175E1   6.183661869632775  
 2.207500000000000E9    -1.435489591518240E1  -1.200384773448218E1   2.168570189794605E1  -6.884583094601327E1  -2.638873468237869E1   1.566278202765503E2  -2.018977913848731E1   6.624528882011263  
 2.210000000000000E9    -1.449520830350173E1  -1.162094942438766E1   2.170574927090210E1  -6.957624880861810E1  -2.627582539755421E1   1.560356659840938E2  -2.016454119457329E1   5.770343763978412  
 2.212500000000000E9    -1.428767756753151E1  -1.364464476837096E1   2.170853534453012E1  -7.022660942638437E1  -2.633031560476523E1   1.548611803471558E2  -2.049826350625101E1   5.467297375390175  
 2.215000000000000E9    -1.451719974744647E1  -1.439896023173218E1   2.170930943419482E1  -7.070097096300066E1  -2.634446677886297E1   1.537631212999712E2  -2.028448518641145E1   4.144235504360591  
 2.217500000000000E9    -1.444911060902673E1  -1.521009433899371E1   2.171835160038562E1  -7.162131211524529E1  -2.627764795476761E1   1.533516740980154E2  -2.026467971768006E1   3.553313897494952  
 2.220000000000000E9    -1.435193665949861E1  -1.740119639295392E1   2.170829588079433E1  -7.225947984851251E1  -2.635902905086363E1   1.532377021337067E2  -2.014708018952583E1   2.452483897688949  
 2.222500000000000E9    -1.445163203074464E1  -1.892383802108310E1   2.171382043033196E1  -7.318527382456115E1  -2.640220870496626E1   1.527826877055483E2  -1.987957611452492E1   1.134203837901300  
 2.225000000000000E9    -1.433348307578913E1  -1.865529578073797E1   2.173221245186208E1  -7.386764879354247E1  -2.636530861137808E1   1.517941164701380E2  -1.996397634174146E1   3.069302891746217  
 2.227500000000000E9    -1.438756766959496E1  -2.090945616940953E1   2.170930907456811E1  -7.460643602228261E1  -2.636533711448453E1   1.512863627089237E2  -1.988256105460317E1   2.652255011184991  
 2.230000000000000E9    -1.425282440993489E1  -2.163266399017420E1   2.171194155277356E1  -7.527825898998778E1  -2.635521244577673E1   1.505101680900215E2  -1.945127829844994E1   4.867622020550408  
 2.232500000000000E9    -1.423635494373690E1  -2.270697103568675E1   2.168215377653917E1  -7.616604593455804E1  -2.636967936158796E1   1.495192676592792E2  -1.974546125037217E1   5.883880788160259  
 2.235000000000000E9    -1.425811707094601E1  -2.523894406265195E1   2.167977495685341E1  -7.670865302710958E1  -2.631831396818260E1   1.486031527237589E2  -2.015498697466576E1   3.659143010078452  
 2.237500000000000E9    -1.423386486046162E1  -2.476060726408110E1   2.167111658164528E1  -7.744031510724408E1  -2.628511148920269E1   1.482277454093090E2  -1.980172433346215E1   4.845056516819713  
 2.240000000000000E9    -1.432620207909158E1  -2.646713059030476E1   2.169793631754251E1  -7.805353774712519E1  -2.637408001901131E1   1.474369128034698E2  -2.021687472255222E1   3.436169416082668  
 2.242500000000000E9    -1.429845544274635E1  -2.741328790910451E1   2.167319706025858E1  -7.872614476236741E1  -2.637539064104934E1   1.473703621733107E2  -2.044282985782132E1   5.130463044834583  
 2.245000000000000E9    -1.413881835812734E1  -2.870457902512471E1   2.173210594003306E1  -7.943083688794972E1  -2.641880737508826E1   1.463913865460936E2  -2.020061423471796E1   2.907623071307133  
