#  HZ   S   DB   R     50.00 
! Rohde & Schwarz ZVA24 4Ports - Version 3.60 - 1145.1110k28 SN: 101513
! Date: 2019-09-25 19:33:39
! Measurements: S33 S43 S34 S44 
! 
 2.000000000000000E9    -1.489487541851569E1   8.983379412114104E1   2.207337637264134E1  -8.674381723909525  -2.666808387171675E1  -1.459713352839152E2  -1.916073170650144E1   1.146034337989944E1  
 2.002500000000000E9    -1.472020260486008E1   8.771324148421566E1   2.208947435375307E1  -9.408700030844582  -2.660408179598295E1  -1.462169798385131E2  -1.910761317389920E1   1.000945283098287E1  
 2.005000000000000E9    -1.471783081683054E1   8.728200059943880E1   2.206657068659397E1  -1.016986314188484E1  -2.667269912619793E1  -1.478607780379321E2  -1.903511333829388E1   1.157374433666598E1  
 2.007500000000000E9    -1.471901407616896E1   8.583473646114206E1   2.208586095402399E1  -1.092351817693962E1  -2.674039531180418E1  -1.479983799521559E2  -1.896303818119234E1   1.079724909838332E1  
 2.010000000000000E9    -1.470101527160079E1   8.546909276990756E1   2.210998982595671E1  -1.142254642709144E1  -2.658829470455637E1  -1.487787453552597E2  -1.905180112959350E1   1.167825334634570E1  
 2.012500000000000E9    -1.474723441840068E1   8.353643596623489E1   2.206868223274012E1  -1.223517754128886E1  -2.666039210868362E1  -1.495458963808956E2  -1.912917574259792E1   1.116120832238535E1  
 2.015000000000000E9    -1.488242678206080E1   8.259420717794593E1   2.207488491500754E1  -1.309922607605339E1  -2.669073995012563E1  -1.499686556221537E2  -1.907899527779039E1   1.128958410999545E1  
 2.017500000000000E9    -1.466366067724468E1   8.167888365589027E1   2.207883312243197E1  -1.362742546725779E1  -2.669611214787297E1  -1.502949772682042E2  -1.913321195313081E1   1.142498818919353E1  
 2.020000000000000E9    -1.475148561153046E1   8.097477254576387E1   2.207081780244551E1  -1.450193983646226E1  -2.674225344939166E1  -1.509859097641710E2  -1.929481867951527E1   1.157082931937423E1  
 2.022500000000000E9    -1.468275695077377E1   7.910382496102000E1   2.205494852031352E1  -1.501631304118683E1  -2.665279343171124E1  -1.516041342099244E2  -1.948559310455398E1   1.020303446764903E1  
 2.025000000000000E9    -1.466390311510389E1   7.690901041758097E1   2.206002658763152E1  -1.586570548961271E1  -2.665548798800283E1  -1.523625215767251E2  -1.936480425788504E1   1.079431921895368E1  
 2.027500000000000E9    -1.476274360002242E1   7.642697282944901E1   2.204424457841099E1  -1.661203473226402E1  -2.664139118493618E1  -1.532047140675881E2  -1.938014996280044E1   9.861130779013688  
 2.030000000000000E9    -1.458370187018534E1   7.540392552101008E1   2.205933402779795E1  -1.724709038341536E1  -2.664631026921062E1  -1.538354495323152E2  -1.962414773137245E1   9.817815782761844  
 2.032500000000000E9    -1.474512232245528E1   7.453993736806180E1   2.204071535692038E1  -1.802503154108300E1  -2.665532165668996E1  -1.547408439417549E2  -1.949800124710017E1   1.140243100729093E1  
 2.035000000000000E9    -1.472787581975669E1   7.352494749016746E1   2.206648397359909E1  -1.863976193514501E1  -2.664120107813880E1  -1.551276105929756E2  -1.949334936265674E1   1.097274570461339E1  
 2.037500000000000E9    -1.476783762197201E1   7.184043958579397E1   2.204335183261994E1  -1.924012547086119E1  -2.666267437615063E1  -1.561153466858208E2  -1.927349160942386E1   1.070461210489686E1  
 2.040000000000000E9    -1.478939720980365E1   7.122253662505766E1   2.206418676083501E1  -2.011980523314953E1  -2.662354382392007E1  -1.565711206386823E2  -1.950129857226631E1   9.969468780092612  
 2.042500000000000E9    -1.471226343440789E1   6.940926700475042E1   2.205617664396113E1  -2.071137065623952E1  -2.671652065792653E1  -1.574279341077822E2  -1.948420636203029E1   9.530759925426507  
 2.045000000000000E9    -1.476363863387567E1   6.846940107041549E1   2.204276357283432E1  -2.162921700114945E1  -2.673159453701470E1  -1.576393149731814E2  -1.954131051975367E1   1.076595240036698E1  
 2.047500000000000E9    -1.456440249196230E1   6.770923980108742E1   2.203382203825978E1  -2.235470509704460E1  -2.664944789712643E1  -1.586460181053841E2  -1.951261205860767E1   1.145080110287663E1  
 2.050000000000000E9    -1.455180940961364E1   6.701861376898611E1   2.202641177225948E1  -2.305394833169404E1  -2.666766785754535E1  -1.587116334564789E2  -1.956345963035108E1   1.072535832727627E1  
 2.052500000000000E9    -1.465904612551781E1   6.467288903215294E1   2.205510201228195E1  -2.371112700160952E1  -2.665668008046793E1  -1.593736158156264E2  -1.968810992562540E1   1.001338894714062E1  
 2.055000000000000E9    -1.465196597107191E1   6.377733355226409E1   2.203456230081537E1  -2.461123318891079E1  -2.658262738398114E1  -1.599225168911542E2  -1.970194984895781E1   1.060652163107980E1  
 2.057500000000000E9    -1.462510251500239E1   6.334340702641346E1   2.202654315118192E1  -2.527346188988733E1  -2.665070938515732E1  -1.614773124461846E2  -1.969044070548835E1   9.241916279022968  
 2.060000000000000E9    -1.468692908871349E1   6.174719552611070E1   2.205696138118609E1  -2.589041767234555E1  -2.667420462885823E1  -1.620293765928890E2  -1.970819358485613E1   9.574605090283590  
 2.062500000000000E9    -1.465521521167729E1   6.071603166091011E1   2.203492907642217E1  -2.656066846658388E1  -2.665749717816178E1  -1.623109096136969E2  -2.000324520574219E1   9.095765123947743  
 2.065000000000000E9    -1.443133358653909E1   5.978919357686765E1   2.205331528673869E1  -2.739807576737620E1  -2.665789711346848E1  -1.634849258978966E2  -1.978667854460896E1   7.964788615725743  
 2.067500000000000E9    -1.436585420144506E1   5.874077885235631E1   2.207277989225660E1  -2.793299300835314E1  -2.663173919728581E1  -1.641752516275790E2  -1.968792488810053E1   9.422480323316904  
 2.070000000000000E9    -1.449313815959718E1   5.743177020403270E1   2.201824249426834E1  -2.879124430103813E1  -2.668910499483788E1  -1.644670123834494E2  -1.970965481267219E1   9.802545907061651  
 2.072500000000000E9    -1.440208506135649E1   5.633114509582659E1   2.203098022964246E1  -2.952992891214773E1  -2.666559439025145E1  -1.653460930652667E2  -1.991691647326590E1   8.989808854580840  
 2.075000000000000E9    -1.446831835818760E1   5.593112055404911E1   2.201223508391201E1  -3.014993824678545E1  -2.664869148561777E1  -1.653930983204349E2  -1.997437324503249E1   9.408643106082456  
 2.077500000000000E9    -1.440810600798121E1   5.435706038192618E1   2.205919063215121E1  -3.080222220991563E1  -2.669342693918213E1  -1.661562419148158E2  -2.017451823403593E1   9.539043143816137  
 2.080000000000000E9    -1.437648081347392E1   5.238538026560573E1   2.204474557129788E1  -3.156881652244029E1  -2.663092223315963E1  -1.674653813081449E2  -1.996246990023409E1   8.867922959364217  
 2.082500000000000E9    -1.444266205241447E1   5.149146993489065E1   2.202430926023750E1  -3.244524614127130E1  -2.659293318227560E1  -1.675600706428785E2  -1.991423521324599E1   1.044256076292610E1  
 2.085000000000000E9    -1.455919965788738E1   5.054123739975926E1   2.203918806287604E1  -3.313563567973552E1  -2.661269661061307E1  -1.684261452282972E2  -2.015517316880679E1   9.877297878022128  
 2.087500000000000E9    -1.450027800429468E1   4.938185734465947E1   2.203102754192930E1  -3.368661297064236E1  -2.660576948776827E1  -1.693498100908634E2  -2.004819216633430E1   8.952309580627517  
 2.090000000000000E9    -1.443935538212612E1   4.869244567534941E1   2.204311938394242E1  -3.446200946497631E1  -2.663382342215219E1  -1.699481457581190E2  -2.016279197794420E1   7.067619994952525  
 2.092500000000000E9    -1.432795224623096E1   4.678499526599325E1   2.200910824963102E1  -3.521072757211083E1  -2.664046481379559E1  -1.708972713793931E2  -1.994623713331143E1   8.804544993180905  
 2.095000000000000E9    -1.436382711685668E1   4.554749512569988E1   2.201035263769192E1  -3.588169845125677E1  -2.666545743359603E1  -1.712323980751259E2  -2.029392938688564E1   6.817537918294630  
 2.097500000000000E9    -1.443276818934149E1   4.491837157550289E1   2.202847623592020E1  -3.669157281927674E1  -2.666820689921912E1  -1.718812187390278E2  -2.038012858719882E1   6.674191819342095  
 2.100000000000000E9    -1.427644409747304E1   4.374277837461138E1   2.203183260899682E1  -3.734951179394828E1  -2.670621267464619E1  -1.723658066575117E2  -1.993373280002664E1   6.380049689591658  
 2.102500000000000E9    -1.430084891845021E1   4.210382450009698E1   2.203110429081901E1  -3.811498696636698E1  -2.667655584362678E1  -1.732818400652469E2  -2.009112302699303E1   8.114016024043837  
 2.105000000000000E9    -1.431567792789835E1   4.100670642942936E1   2.201911895689179E1  -3.897400590944290E1  -2.673388070786448E1  -1.739023987497126E2  -1.987057848162040E1   7.380820029132382  
 2.107500000000000E9    -1.434266528967943E1   3.908583961063880E1   2.202214896624414E1  -3.956001567090838E1  -2.663076309724120E1  -1.743645814829441E2  -2.018372819300128E1   8.627881022822626  
 2.110000000000000E9    -1.436224729279831E1   3.875374463085906E1   2.199683970948103E1  -4.020078651442965E1  -2.667267357974408E1  -1.753444475202887E2  -1.988976214108271E1   9.545568727535683  
 2.112500000000000E9    -1.422107045961445E1   3.801585261837256E1   2.197817698161760E1  -4.093124593986391E1  -2.665049179167046E1  -1.761206181344903E2  -2.066415906120700E1   7.203214750105285  
 2.115000000000000E9    -1.427249776324030E1   3.616589159506169E1   2.199568168768970E1  -4.172124817785891E1  -2.665662378704275E1  -1.767288193079178E2  -2.037273579951692E1   8.562578672039013  
 2.117500000000000E9    -1.425535630073727E1   3.505849054228128E1   2.199743548856934E1  -4.238177500901880E1  -2.671872926809709E1  -1.775066717883605E2  -2.036558688815185E1   8.607024133253187  
 2.120000000000000E9    -1.418752924870893E1   3.398710298969470E1   2.201259978386030E1  -4.297569564039504E1  -2.673731967827713E1  -1.783519156548772E2  -2.039619379199500E1   6.680695570338866  
 2.122500000000000E9    -1.425417000618305E1   3.366945870966642E1   2.199169418122134E1  -4.362370424680607E1  -2.663295614159499E1  -1.787005130519781E2  -2.016750525478142E1   5.071131710765547  
 2.125000000000000E9    -1.436504574210533E1   3.173879307694838E1   2.199095439222890E1  -4.451284201283764E1  -2.670836818645868E1  -1.793694760743333E2  -2.020673639889759E1   5.746484415153903  
 2.127500000000000E9    -1.407163850850163E1   3.098324863496954E1   2.203820542197992E1  -4.524705267650319E1  -2.666588491134162E1  -1.799409927642168E2  -2.024535892157747E1   6.517066213614326  
 2.130000000000000E9    -1.417503791559792E1   2.953366388273940E1   2.201166293840563E1  -4.602187143603464E1  -2.667662537547371E1   1.794512261749933E2  -2.011405345199776E1   6.478316506444763  
 2.132500000000000E9    -1.418965096175237E1   2.803895303311386E1   2.200504477053940E1  -4.676982512842183E1  -2.662049297360193E1   1.785913686878123E2  -2.027783307971196E1   6.349091613324868  
 2.135000000000000E9    -1.408515056170076E1   2.764283436471347E1   2.201003865029820E1  -4.736608563150761E1  -2.663322210607118E1   1.781871940008957E2  -2.003548205267608E1   7.646238754183219  
 2.137500000000000E9    -1.426064470857184E1   2.590968598567522E1   2.199979203504729E1  -4.818752914627652E1  -2.667753860016305E1   1.777468967467754E2  -2.001735029522335E1   8.373113598654761  
 2.140000000000000E9    -1.419223178683952E1   2.461271867278004E1   2.200128515392626E1  -4.875225900532151E1  -2.660546730038998E1   1.768304078719747E2  -2.004726404098157E1   8.121002769800928  
 2.142500000000000E9    -1.401636663584540E1   2.330633440905321E1   2.199730283788984E1  -4.943107929601874E1  -2.668066745183150E1   1.761584771178823E2  -2.017600871593524E1   7.005696436274947  
 2.145000000000000E9    -1.406964281229653E1   2.208144674015432E1   2.201887376175399E1  -5.031177567426962E1  -2.667500171212915E1   1.754265420964784E2  -2.032084410988595E1   8.328816984903588  
 2.147500000000000E9    -1.406177162738008E1   2.136406072257728E1   2.199855132380202E1  -5.073933476903486E1  -2.668029037996758E1   1.747179173139994E2  -2.050415536010867E1   8.269522508977319  
 2.150000000000000E9    -1.416842746453938E1   2.014791496824236E1   2.201451820008648E1  -5.172844829653051E1  -2.666921346657211E1   1.740157744469395E2  -2.057522654883739E1   6.888329581334419  
 2.152500000000000E9    -1.407852610615407E1   1.883766828778402E1   2.199442699009285E1  -5.246546049754683E1  -2.667958500899024E1   1.736984372681107E2  -2.059211019039143E1   7.118514110908722  
 2.155000000000000E9    -1.414973371524599E1   1.893523520029929E1   2.199599716332568E1  -5.303203338050833E1  -2.665123685187419E1   1.728217307149103E2  -2.045385941686883E1   5.137246736094103  
 2.157500000000000E9    -1.412481588839635E1   1.672690962334344E1   2.199886069747698E1  -5.390484360816765E1  -2.664918418225538E1   1.718800528356637E2  -2.050422178047684E1   4.654923683932634  
 2.160000000000000E9    -1.394689288845265E1   1.411019374462267E1   2.200976117574596E1  -5.462904264994527E1  -2.656903661850615E1   1.719127305623463E2  -2.059086419907447E1   6.254348619337230  
 2.162500000000000E9    -1.407644433059951E1   1.483030866896025E1   2.198702834487354E1  -5.519780837088135E1  -2.674841310909911E1   1.708432255844404E2  -2.016996772683697E1   6.202738364876856  
 2.165000000000000E9    -1.401395583805934E1   1.341663071379412E1   2.198899332423022E1  -5.604817221076456E1  -2.668399165987091E1   1.699540011163929E2  -2.045220899359540E1   7.800979952572386  
 2.167500000000000E9    -1.401637892070702E1   1.199709671440554E1   2.200717871058711E1  -5.679735654581450E1  -2.668818397650760E1   1.692192458354283E2  -2.020165294712774E1   7.726659970088745  
 2.170000000000000E9    -1.403181217391594E1   1.069820291784370E1   2.198976663627127E1  -5.747762131402178E1  -2.665638324543095E1   1.691706077258739E2  -2.034750697394282E1   7.889790731341472  
 2.172500000000000E9    -1.413048528174635E1   1.002209185183071E1   2.200945242643886E1  -5.808850312934665E1  -2.669514140451891E1   1.677940575352039E2  -2.023320317397257E1   9.936964940658347  
 2.175000000000000E9    -1.387339444564129E1   8.576790998826667   2.202381428495960E1  -5.893760362311125E1  -2.663847275962448E1   1.673144427455241E2  -2.086771472289146E1   9.046992946090910  
 2.177500000000000E9    -1.400819217561306E1   6.618380620877440   2.198984568533842E1  -5.950747480635059E1  -2.670301167914978E1   1.670844327090758E2  -2.081484979574283E1   9.573247873108731  
 2.180000000000000E9    -1.405587209166125E1   5.325479763750971   2.196945598128701E1  -6.043084223393120E1  -2.668097981824955E1   1.661203003231745E2  -2.051827739772365E1   7.415181546462923  
 2.182500000000000E9    -1.381899046744331E1   6.336345370330974   2.196636823290242E1  -6.099251942323227E1  -2.660019884882449E1   1.649564955283640E2  -2.061342197167126E1   8.837607961842737  
 2.185000000000000E9    -1.402614284255731E1   5.079019661041174   2.195333953390129E1  -6.162827731655551E1  -2.663913913422265E1   1.649494884547727E2  -2.061524473026628E1   4.709053440725945  
 2.187500000000000E9    -1.399863089246136E1   3.122579320975695   2.198115231049131E1  -6.223913702646075E1  -2.666986106902042E1   1.645495017553273E2  -2.078130780096181E1   5.115379192474170  
 2.190000000000000E9    -1.381958289992068E1   1.025908450957842   2.197829371727775E1  -6.302728086608022E1  -2.671089315426014E1   1.635321205274705E2  -2.043469076236932E1   5.831216213211872  
 2.192500000000000E9    -1.392005892569171E1   1.130835404159861   2.200246231692303E1  -6.369547406097385E1  -2.670126979802124E1   1.630158784531303E2  -2.031853036589946E1   5.853534043353766  
 2.195000000000000E9    -1.390818570358503E1   1.682865188733319E-1   2.197669548909471E1  -6.441919255127533E1  -2.658721083217209E1   1.620357838943323E2  -2.045446080290800E1   5.517118298616898  
 2.197500000000000E9    -1.389854820131924E1  -2.011588420213620   2.198559613623692E1  -6.537211810545243E1  -2.663095430772326E1   1.608689311869594E2  -2.075479845953494E1   6.850840765262427  
 2.200000000000000E9    -1.381884374677831E1  -2.819847143173837   2.195008463336005E1  -6.607464114522435E1  -2.666109501247040E1   1.608493846272637E2  -2.040623424664118E1   7.584604148382923  
 2.202500000000000E9    -1.388557668752599E1  -3.823601057768225   2.196420296763822E1  -6.678376020476419E1  -2.659262542979572E1   1.604046513144185E2  -2.032555620220440E1   7.276589798217979  
 2.205000000000000E9    -1.390049860622495E1  -3.924561989525186   2.197631306263872E1  -6.756908002705532E1  -2.665108562438048E1   1.592886590099489E2  -2.051658499054943E1   7.996637157802774  
 2.207500000000000E9    -1.385884189657784E1  -5.834829201413976   2.194687843501265E1  -6.821567383036337E1  -2.665129262512866E1   1.586091767680229E2  -2.092711907282110E1   8.253151775080978  
 2.210000000000000E9    -1.396508302110007E1  -5.861876744173062   2.195617568269598E1  -6.883598553635183E1  -2.667807777537680E1   1.587322631020101E2  -2.093085419523744E1   7.544356034211674  
 2.212500000000000E9    -1.367297467482402E1  -7.627705231949991   2.194796223469110E1  -6.954275045534875E1  -2.668356395100375E1   1.566342782146908E2  -2.084549696447835E1   5.687935300806645  
 2.215000000000000E9    -1.392222851359113E1  -8.831228919517137   2.198083086470722E1  -7.010173229865566E1  -2.665684625067612E1   1.571351727661095E2  -2.088674378236578E1   5.940127853428206  
 2.217500000000000E9    -1.382281863682664E1  -9.858648252085942   2.197826507928913E1  -7.089792930425706E1  -2.668572579962574E1   1.552174676498752E2  -2.097362079873083E1   4.610903736130075  
 2.220000000000000E9    -1.376360137081355E1  -1.173762806308535E1   2.198493066567097E1  -7.154864842822103E1  -2.666721884133380E1   1.554994949082983E2  -2.052974142573764E1   4.039139864925597  
 2.222500000000000E9    -1.385593066842547E1  -1.315630714034761E1   2.197153298018995E1  -7.241914753677111E1  -2.669558734218503E1   1.551624121869957E2  -2.048754450588691E1   2.503044610481795  
 2.225000000000000E9    -1.377055062586478E1  -1.375687781818316E1   2.198230818534261E1  -7.316678902505436E1  -2.671014983169475E1   1.533129663543456E2  -2.049980194295253E1   4.403486505463241  
 2.227500000000000E9    -1.385644689619970E1  -1.548909850816088E1   2.196772273321195E1  -7.396312950300340E1  -2.676123864950050E1   1.533096895538717E2  -2.028161929668736E1   5.374017595289720  
 2.230000000000000E9    -1.367532528749198E1  -1.615046124421741E1   2.197310360953255E1  -7.461252616577886E1  -2.671625691479473E1   1.529926104382588E2  -2.014936406665084E1   6.763633557948178  
 2.232500000000000E9    -1.374867491356884E1  -1.831413715957978E1   2.195418665971414E1  -7.554132936374198E1  -2.657450948217544E1   1.526608256736840E2  -2.029444653375633E1   6.307003749586079  
 2.235000000000000E9    -1.377920908291048E1  -1.917459849042890E1   2.192715757908366E1  -7.612780017239869E1  -2.658228860378216E1   1.514687973003897E2  -2.076539509271097E1   6.221833037403987  
 2.237500000000000E9    -1.372474166394526E1  -1.963600556535159E1   2.192954436590620E1  -7.673958542106688E1  -2.668534136151139E1   1.511682228465709E2  -2.034642161963918E1   5.642984949002280  
 2.240000000000000E9    -1.377076775838647E1  -2.015762723699281E1   2.191304597286018E1  -7.740772850194213E1  -2.666286341552311E1   1.495584563130424E2  -2.076669736405400E1   3.494392950707293  
 2.242500000000000E9    -1.367188839144044E1  -2.175425037475019E1   2.188749049609232E1  -7.801802432462223E1  -2.678141252031031E1   1.484044683716114E2  -2.141574560109938E1   4.721911249150232  
 2.245000000000000E9    -1.342600048061038E1  -2.141073480765478E1   2.189889790563104E1  -7.866912892928508E1  -2.661136944614534E1   1.486507981899883E2  -2.132014656968226E1   5.026123153699851  
