#  HZ   S   DB   R     50.00 
! Rohde & Schwarz ZVA24 4Ports - Version 3.60 - 1145.1110k28 SN: 101513
! Date: 2019-09-25 19:46:34
! Measurements: S33 S43 S34 S44 
! 
 2.000000000000000E9    -1.535962352276970E1   8.210224246024812E1   2.202249095498098E1  -9.576687938380598  -2.676267388691478E1  -1.463282901417572E2  -1.800917992237127E1   1.246102496901897E1  
 2.002500000000000E9    -1.530888515887015E1   8.114167977256712E1   2.203814578322781E1  -1.040569541078509E1  -2.673618745055791E1  -1.470165109479412E2  -1.803793305168048E1   1.064531909638889E1  
 2.005000000000000E9    -1.524773322289022E1   8.063783487100614E1   2.203969741378206E1  -1.100262913160020E1  -2.674468408210215E1  -1.478287717855762E2  -1.780232371396197E1   1.083774837926305E1  
 2.007500000000000E9    -1.528319640385333E1   7.987361920893406E1   2.203725896198113E1  -1.170698920596674E1  -2.664680666429379E1  -1.484044750035615E2  -1.797762210676427E1   1.112521823125476E1  
 2.010000000000000E9    -1.543744589828292E1   7.809980582402869E1   2.206361990630323E1  -1.231004602334930E1  -2.676029142426769E1  -1.489802166615058E2  -1.763757766983457E1   1.076659727537941E1  
 2.012500000000000E9    -1.521472544343701E1   7.593307653669015E1   2.202572390780568E1  -1.306105202325237E1  -2.680376360991661E1  -1.501225983126107E2  -1.775025771343566E1   1.074047020583354E1  
 2.015000000000000E9    -1.540226189013399E1   7.550783716697703E1   2.201752747697303E1  -1.395794922447688E1  -2.678516687533419E1  -1.503435802914458E2  -1.761707688945880E1   1.169937182334107E1  
 2.017500000000000E9    -1.521684232898295E1   7.479724757037771E1   2.204749708325714E1  -1.456129212743207E1  -2.680284475018890E1  -1.507436247231318E2  -1.769497951427693E1   1.165877901867383E1  
 2.020000000000000E9    -1.529760307552783E1   7.347298635521734E1   2.203265112843390E1  -1.548201811059165E1  -2.675355621076669E1  -1.517118744989796E2  -1.781294171725705E1   1.288556283083708E1  
 2.022500000000000E9    -1.522530322748655E1   7.208160626783028E1   2.201686429350130E1  -1.595372800922472E1  -2.678493789635470E1  -1.522003888659345E2  -1.786115154688829E1   1.207547103814727E1  
 2.025000000000000E9    -1.515292388589213E1   7.072159325858404E1   2.201615615488381E1  -1.676795945061845E1  -2.680120126387330E1  -1.526497501645481E2  -1.809603196562642E1   1.184804054943540E1  
 2.027500000000000E9    -1.529907182512088E1   6.969233210336208E1   2.201053086468038E1  -1.750148783703657E1  -2.667364542321623E1  -1.535211674125708E2  -1.811635533077193E1   1.127342947547667E1  
 2.030000000000000E9    -1.503694089748646E1   6.886329177631059E1   2.199639179522913E1  -1.821420239604873E1  -2.668512945932756E1  -1.543918240789078E2  -1.798622701708853E1   1.018853184138765E1  
 2.032500000000000E9    -1.517684874340264E1   6.715372471330170E1   2.201346865848049E1  -1.889055130225985E1  -2.675721596301381E1  -1.550485010384253E2  -1.818791985845680E1   1.067229030418860E1  
 2.035000000000000E9    -1.510413450758705E1   6.589076770554244E1   2.201865450948446E1  -1.968119564029079E1  -2.676015231676749E1  -1.553915050024392E2  -1.821765480645626E1   9.490864356038303  
 2.037500000000000E9    -1.516645489157811E1   6.439140965081347E1   2.199554524816148E1  -2.019115433477221E1  -2.680973127023640E1  -1.565326563744350E2  -1.801001766013578E1   9.610192338037255  
 2.040000000000000E9    -1.530076770285213E1   6.381556682408620E1   2.203204100723245E1  -2.104659274205536E1  -2.682402918132334E1  -1.570452919808868E2  -1.801040217427157E1   9.638810474345258  
 2.042500000000000E9    -1.513880933991948E1   6.317396669308799E1   2.200689095280723E1  -2.163263538450575E1  -2.686115370481012E1  -1.575119016629207E2  -1.805666947967868E1   9.970120771655726  
 2.045000000000000E9    -1.521142615290565E1   6.094134473393513E1   2.200274862549717E1  -2.267399877765173E1  -2.679687017541937E1  -1.584995697218288E2  -1.783979186877820E1   1.022973151404323E1  
 2.047500000000000E9    -1.502932851240658E1   6.037042252626207E1   2.202070113066134E1  -2.321348527398899E1  -2.673902824485907E1  -1.586921009386040E2  -1.798688653292676E1   1.062125656050407E1  
 2.050000000000000E9    -1.496565897193694E1   5.993518049258886E1   2.200836933385232E1  -2.403619029283096E1  -2.682187808164821E1  -1.592764446340906E2  -1.822889465824746E1   1.188813048628571E1  
 2.052500000000000E9    -1.508068443688805E1   5.731342338639770E1   2.201183173599036E1  -2.454360453221043E1  -2.679704009713556E1  -1.598405834517043E2  -1.801191399131220E1   1.132849881126665E1  
 2.055000000000000E9    -1.495672362300146E1   5.720086676523560E1   2.198801076654888E1  -2.556784700017242E1  -2.670402035457264E1  -1.607915708993068E2  -1.842176340722406E1   1.138224828190533E1  
 2.057500000000000E9    -1.510194482955375E1   5.643551623808704E1   2.199247211919042E1  -2.617361956356530E1  -2.675367326874610E1  -1.618414379992382E2  -1.834691320213465E1   9.502001116009957  
 2.060000000000000E9    -1.501165920867526E1   5.463111982387940E1   2.200839462785799E1  -2.680240353428108E1  -2.670157856368251E1  -1.629047033736630E2  -1.843845143161086E1   1.033460255818787E1  
 2.062500000000000E9    -1.496693481536576E1   5.277843793672108E1   2.200140499432488E1  -2.748165543086219E1  -2.674526958192774E1  -1.631240073990234E2  -1.865279578072654E1   9.222802227257171  
 2.065000000000000E9    -1.485738693581979E1   5.202922773072341E1   2.200578351023607E1  -2.831772721593017E1  -2.679295780888830E1  -1.640220840078827E2  -1.834494472425745E1   8.167052129830031  
 2.067500000000000E9    -1.481688487325160E1   5.111497946120755E1   2.202747917582214E1  -2.895869995756484E1  -2.673383221497743E1  -1.643477532945732E2  -1.824941152169153E1   7.936980726468541  
 2.070000000000000E9    -1.494530163072747E1   4.977877112532602E1   2.198981158160873E1  -2.973435953069441E1  -2.676768780753886E1  -1.652771488398201E2  -1.830810003331962E1   8.913037013156462  
 2.072500000000000E9    -1.486526843516417E1   4.839506737738678E1   2.199300913949846E1  -3.043494754653600E1  -2.681926814516627E1  -1.659863614025231E2  -1.827998316518033E1   8.206889832011564  
 2.075000000000000E9    -1.499390687923591E1   4.844468900359377E1   2.198131278107369E1  -3.105997095918088E1  -2.682674658362508E1  -1.662712581867955E2  -1.838050063191295E1   8.829881562226937  
 2.077500000000000E9    -1.494956187335678E1   4.822649402492627E1   2.200653087528023E1  -3.167147656758332E1  -2.683164377449819E1  -1.666653013762461E2  -1.841168089112653E1   9.323931631075570  
 2.080000000000000E9    -1.483530991241739E1   4.476446755791721E1   2.201328752796239E1  -3.255173628133823E1  -2.679564492655806E1  -1.673143845873445E2  -1.833135710289685E1   8.337345522502078  
 2.082500000000000E9    -1.489910413972171E1   4.435764541789219E1   2.199596352218199E1  -3.340528324538455E1  -2.675576869649264E1  -1.682664563582180E2  -1.842072752203038E1   1.084433444473680E1  
 2.085000000000000E9    -1.491963581768037E1   4.413452095561689E1   2.199904521572253E1  -3.399034781244776E1  -2.670531696074370E1  -1.690134510217291E2  -1.853718963020483E1   8.517703555918576  
 2.087500000000000E9    -1.492720285679124E1   4.216747356517576E1   2.198513545725513E1  -3.468777356826475E1  -2.668460988292399E1  -1.702409074060437E2  -1.853901748655863E1   8.069748032072535  
 2.090000000000000E9    -1.479220910964931E1   4.130102501247140E1   2.200578843426550E1  -3.541773356883019E1  -2.678801783042399E1  -1.704421007351156E2  -1.864582472317372E1   8.528857643539768  
 2.092500000000000E9    -1.479189128966274E1   3.930869108592512E1   2.198134134720473E1  -3.608977184727505E1  -2.679353813081621E1  -1.712867552701990E2  -1.857575656996055E1   7.439088944801752  
 2.095000000000000E9    -1.471182827224616E1   3.780711485192474E1   2.197833672672245E1  -3.682890876663529E1  -2.674429613204649E1  -1.719585605618267E2  -1.870625825146890E1   6.143326331526801  
 2.097500000000000E9    -1.476172780404979E1   3.760351397154849E1   2.198140696596436E1  -3.759581299077873E1  -2.673076142025160E1  -1.727840689859531E2  -1.867092218421832E1   6.538003303586234  
 2.100000000000000E9    -1.468265214190767E1   3.624675746280622E1   2.199332475933804E1  -3.821233332435519E1  -2.676404380513318E1  -1.729107305047027E2  -1.859911251381058E1   5.937712835786758  
 2.102500000000000E9    -1.467515158676766E1   3.514978386364742E1   2.199927104399239E1  -3.908168672560924E1  -2.677690712233645E1  -1.734708107910847E2  -1.839876798747917E1   6.911904482736241  
 2.105000000000000E9    -1.469006439941468E1   3.399322399923454E1   2.199056210875886E1  -3.992394520248787E1  -2.683485402069385E1  -1.748558494540446E2  -1.831392055257740E1   7.865105251983942  
 2.107500000000000E9    -1.472910873108876E1   3.154166044863567E1   2.197235227488645E1  -4.052096429253020E1  -2.676596118934170E1  -1.750834126602231E2  -1.839752832958728E1   8.447301785693453  
 2.110000000000000E9    -1.467129307937921E1   3.153089295921363E1   2.197288878904332E1  -4.110519768137104E1  -2.677330388526686E1  -1.757534919130252E2  -1.836582571050003E1   8.555266249980416  
 2.112500000000000E9    -1.465797406307915E1   3.014481096030334E1   2.197349166886190E1  -4.193195030178149E1  -2.683192172588434E1  -1.764555765960409E2  -1.875479387064629E1   7.858929767643379  
 2.115000000000000E9    -1.458199137365447E1   2.982062246550757E1   2.197884906203948E1  -4.266915587627126E1  -2.676511651184213E1  -1.773599050938712E2  -1.876350613992671E1   8.111719660431438  
 2.117500000000000E9    -1.459120426980441E1   2.831461624248866E1   2.195839288185814E1  -4.324172534228288E1  -2.678829104856906E1  -1.779770725389788E2  -1.892266634221462E1   8.802185213313662  
 2.120000000000000E9    -1.461327775768051E1   2.779678849332599E1   2.196660832528847E1  -4.379154528076445E1  -2.671936967716922E1  -1.785748166040947E2  -1.883163716014765E1   7.310969827046000  
 2.122500000000000E9    -1.456913872967918E1   2.629875967589084E1   2.194523547089681E1  -4.464365719859266E1  -2.680676223245444E1  -1.793816843045931E2  -1.877719235214022E1   5.138827058125004  
 2.125000000000000E9    -1.457327058964612E1   2.489007310583265E1   2.196431574841693E1  -4.545892717264834E1  -2.679510327192716E1  -1.796547898190801E2  -1.882215588919772E1   5.880196565375962  
 2.127500000000000E9    -1.453401455010557E1   2.371653874984014E1   2.199206508528784E1  -4.614280649763019E1  -2.672934030728030E1   1.793598337514797E2  -1.879682571128787E1   5.126452053300212  
 2.130000000000000E9    -1.441803531860068E1   2.211140072805157E1   2.197906605093263E1  -4.694613848867731E1  -2.675542074904445E1   1.787673289223098E2  -1.855110947834477E1   5.035426762589648  
 2.132500000000000E9    -1.450062769298801E1   2.055347266330722E1   2.196639871943878E1  -4.775201502880395E1  -2.677299955749050E1   1.784274682938705E2  -1.879036423361246E1   4.370506120060323  
 2.135000000000000E9    -1.447271030868689E1   2.077513828366620E1   2.197514390085292E1  -4.821116241927280E1  -2.679387455633729E1   1.774923938540780E2  -1.848501660778522E1   5.564609394917755  
 2.137500000000000E9    -1.446392720181537E1   1.934405497814873E1   2.197091153254295E1  -4.908033328152596E1  -2.669981486189107E1   1.769441509794793E2  -1.830987903677879E1   6.659814637127729  
 2.140000000000000E9    -1.449593071961177E1   1.746062793039762E1   2.197108057502348E1  -4.971662344252367E1  -2.680403990942455E1   1.762015526266330E2  -1.845135706218444E1   7.474257412441200  
 2.142500000000000E9    -1.423261726867684E1   1.663082524865479E1   2.196158575588085E1  -5.037166870083946E1  -2.677953453341911E1   1.757065179627876E2  -1.854807803335077E1   7.437953960731947  
 2.145000000000000E9    -1.449640285197830E1   1.569207723522834E1   2.196053357346018E1  -5.131626547678924E1  -2.678188444745408E1   1.746726337292676E2  -1.858097974552744E1   8.799835623190525  
 2.147500000000000E9    -1.442323116487288E1   1.442654721514748E1   2.195580219875979E1  -5.170508236362506E1  -2.677139698040045E1   1.741304892446771E2  -1.871567603610937E1   8.633188500830734  
 2.150000000000000E9    -1.438584271808702E1   1.351596073055574E1   2.195715933669731E1  -5.247370315556582E1  -2.674452263111649E1   1.735710865328931E2  -1.919938573095219E1   6.815643503246673  
 2.152500000000000E9    -1.437931035879373E1   1.091235260053894E1   2.194403283194512E1  -5.344961218275645E1  -2.681154360137563E1   1.729419019944455E2  -1.903877085892907E1   7.079020978609128  
 2.155000000000000E9    -1.442821436155343E1   1.125614135408541E1   2.196675851074244E1  -5.410941527665345E1  -2.672480797961642E1   1.724662230591912E2  -1.889611985128825E1   4.080704479081217  
 2.157500000000000E9    -1.439634514700052E1   8.801237724520345   2.195976722582202E1  -5.482831166413331E1  -2.679026937960707E1   1.711819706453481E2  -1.899985630342715E1   3.553774255652018  
 2.160000000000000E9    -1.430879282550860E1   7.900645590933733   2.196622453072377E1  -5.551049637261425E1  -2.679984752077216E1   1.711758490498818E2  -1.886471739212921E1   3.906495321327845  
 2.162500000000000E9    -1.446845760680549E1   7.924953423939625   2.197207965455691E1  -5.614583813322935E1  -2.675306147205248E1   1.700318100586788E2  -1.872803279221519E1   3.960407550451966  
 2.165000000000000E9    -1.442567079094452E1   5.929734710313868   2.196540974703534E1  -5.699974045826626E1  -2.680884375982630E1   1.693208518997863E2  -1.856894507523984E1   5.460374931197761  
 2.167500000000000E9    -1.442825171155366E1   5.376763905551165   2.196022120780790E1  -5.776090215736282E1  -2.678753325934167E1   1.683663039416172E2  -1.850730529620348E1   6.028784732221260  
 2.170000000000000E9    -1.440481361735106E1   3.840173737922769   2.195386091926169E1  -5.843467009175003E1  -2.676909864175580E1   1.680519953695961E2  -1.862264325751020E1   6.537701878008726  
 2.172500000000000E9    -1.438791637125188E1   2.976247735060994   2.197059495894847E1  -5.905084394195117E1  -2.682165487658696E1   1.672527468988772E2  -1.865827817554979E1   8.224677849178898  
 2.175000000000000E9    -1.420564355239822E1   2.091018005713291   2.198133111044948E1  -5.995642789869459E1  -2.677130834253908E1   1.670715182952935E2  -1.885708553901567E1   8.149353041020683  
 2.177500000000000E9    -1.430681781110602E1  -6.702366729529400E-1   2.194767149293898E1  -6.042714373364129E1  -2.675853438251018E1   1.655141238601565E2  -1.899495690979829E1   8.635541777492581  
 2.180000000000000E9    -1.428382594157465E1  -1.350206682263969   2.194170793144567E1  -6.128865555527036E1  -2.668865260376601E1   1.659273324421998E2  -1.901917139785598E1   6.149273712527436  
 2.182500000000000E9    -1.427034396521330E1  -3.669885611939293E-1   2.192856135367753E1  -6.200051218285060E1  -2.681707405842959E1   1.649406824840260E2  -1.903858016491004E1   6.423216218867951  
 2.185000000000000E9    -1.417983735650233E1  -1.884775688894051   2.190099331734455E1  -6.262453572959168E1  -2.684597474549937E1   1.639586374390489E2  -1.913573837821020E1   2.822661629069963  
 2.187500000000000E9    -1.423627369500403E1  -3.079240848351874   2.190028377240327E1  -6.316522641344206E1  -2.673962272020149E1   1.635984623542979E2  -1.953316308922806E1   3.078306370950524  
 2.190000000000000E9    -1.403013273599819E1  -4.034378082794937   2.188999540608655E1  -6.396648741536314E1  -2.678284324755584E1   1.624876229261897E2  -1.918866135466629E1   3.571222892954394  
 2.192500000000000E9    -1.425857099119418E1  -5.832073266947496   2.190985754441172E1  -6.468112016732914E1  -2.683966681134331E1   1.618249358186224E2  -1.867302645234901E1   2.887141898994949  
 2.195000000000000E9    -1.432528178845698E1  -7.505791395983233   2.193606955197787E1  -6.542494255255717E1  -2.683547918934336E1   1.614555291282721E2  -1.861369756755930E1   3.542797898842723  
 2.197500000000000E9    -1.424741835631465E1  -8.992730805634885   2.194592474231531E1  -6.628190609357823E1  -2.675040768852876E1   1.609358756603246E2  -1.853558882651101E1   4.110116396771321  
 2.200000000000000E9    -1.419580434432599E1  -9.163112998008488   2.191876149136179E1  -6.709600409388686E1  -2.677264260946771E1   1.607465868420931E2  -1.834900166666808E1   5.602317387313544  
 2.202500000000000E9    -1.415888544953863E1  -1.113190771409871E1   2.193440339871787E1  -6.779121367046977E1  -2.670188198022303E1   1.599424861098383E2  -1.856818322772270E1   5.929940546378425  
 2.205000000000000E9    -1.413091261154705E1  -1.061931477694160E1   2.193433754632669E1  -6.839521331358044E1  -2.671501617079667E1   1.589897491575118E2  -1.884861726117544E1   5.144014243630449  
 2.207500000000000E9    -1.415469344945128E1  -1.350686825239573E1   2.192075448605141E1  -6.923193892855400E1  -2.673820171778239E1   1.578888401330000E2  -1.922618928683970E1   6.953201603702741  
 2.210000000000000E9    -1.427716785537624E1  -1.317073624086293E1   2.192553443312406E1  -6.992233811380794E1  -2.666762587514908E1   1.567602865189764E2  -1.917205498440883E1   5.169730173047264  
 2.212500000000000E9    -1.412414314412948E1  -1.527241790677217E1   2.191593316348978E1  -7.057954806662526E1  -2.680395673651788E1   1.569445509801471E2  -1.951474332112015E1   3.537931421955602  
 2.215000000000000E9    -1.413896289146895E1  -1.586109644658196E1   2.194873131298987E1  -7.110275073577786E1  -2.678614835786133E1   1.555418906602787E2  -1.924741025222648E1   2.855373913255350  
 2.217500000000000E9    -1.413050007560497E1  -1.709355356769218E1   2.191590405554962E1  -7.188063807729019E1  -2.684031652993644E1   1.548859483078935E2  -1.921281969997380E1   1.679202151032506  
 2.220000000000000E9    -1.407964835240225E1  -1.925671285719857E1   2.193805705703649E1  -7.263024643139674E1  -2.683773970612604E1   1.541829298644618E2  -1.902563910948434E1   1.496976651020197  
 2.222500000000000E9    -1.416710875844380E1  -2.066935023531144E1   2.193687199908990E1  -7.356682635457707E1  -2.681522245166077E1   1.541561823022121E2  -1.876597584933530E1   8.499227166728427E-1  
 2.225000000000000E9    -1.408941838190991E1  -2.021776219454760E1   2.194516786315823E1  -7.421292248807717E1  -2.678237595421730E1   1.533824609993081E2  -1.876169727849518E1   2.557779833875745  
 2.227500000000000E9    -1.414920784805651E1  -2.302199538039163E1   2.193723736442215E1  -7.501045005298317E1  -2.683527573071212E1   1.532783118402955E2  -1.849921731255916E1   2.498468140023129  
 2.230000000000000E9    -1.399517749995833E1  -2.283350709799574E1   2.194386150463056E1  -7.563104617820663E1  -2.681975559480879E1   1.521751991544146E2  -1.843696804182816E1   5.184392840914241  
 2.232500000000000E9    -1.399996795106402E1  -2.413490686047197E1   2.189485430920269E1  -7.649953441337868E1  -2.683327803161508E1   1.514165382026336E2  -1.850258562677961E1   4.970423317338963  
 2.235000000000000E9    -1.403476723418141E1  -2.648586844688149E1   2.189519436258182E1  -7.718668387294714E1  -2.672269228645274E1   1.504826830610298E2  -1.888554397207322E1   4.622206522206267  
 2.237500000000000E9    -1.397588361506732E1  -2.672679895563266E1   2.189499528205645E1  -7.772150221101062E1  -2.668251515465632E1   1.503532898924705E2  -1.876075920262565E1   4.764384459278305  
 2.240000000000000E9    -1.410781836581138E1  -2.815903685287123E1   2.190810094191685E1  -7.843905072451970E1  -2.684100216555253E1   1.486462830805847E2  -1.911515095898210E1   2.665937401251902  
 2.242500000000000E9    -1.409120509355056E1  -3.000056037545854E1   2.191220120617706E1  -7.917924540885836E1  -2.677723257621059E1   1.486341285645175E2  -1.934062982345616E1   3.229949920764379  
 2.245000000000000E9    -1.384412565938628E1  -2.999585240655211E1   2.190932160148422E1  -7.976664090880836E1  -2.683314267111209E1   1.477577083445003E2  -1.921149473785117E1   2.008047861187786  
