#  HZ   S   DB   R     50.00 
! Rohde & Schwarz ZVA24 4Ports - Version 3.60 - 1145.1110k28 SN: 101513
! Date: 2019-09-25 19:14:30
! Measurements: S33 S43 S34 S44 
! 
 2.000000000000000E9    -1.643648512674993E1   7.693908912792946E1   2.169263282852777E1  -6.559405768204520  -2.623477725777023E1  -1.448518700101861E2  -1.673979324427501E1   1.755934594099390E1  
 2.002500000000000E9    -1.630959741047177E1   7.749952054462223E1   2.166397411739327E1  -7.309666828668654  -2.628621365864636E1  -1.466707447533780E2  -1.659299116485658E1   1.668258812403790E1  
 2.005000000000000E9    -1.634605644289319E1   7.562142112526894E1   2.169132188513378E1  -7.993529064848540  -2.634640165828061E1  -1.474054790682991E2  -1.657008939293736E1   1.682583805898869E1  
 2.007500000000000E9    -1.634575711473799E1   7.401236767399308E1   2.169769124209729E1  -8.856485571382256  -2.628941079858948E1  -1.473694414436310E2  -1.664551945035636E1   1.670424656131056E1  
 2.010000000000000E9    -1.646225931356583E1   7.277555771071540E1   2.172837038806263E1  -9.394665896550658  -2.632946141802714E1  -1.486309437458507E2  -1.655927858290993E1   1.664765542574649E1  
 2.012500000000000E9    -1.625866388373162E1   7.115370177112570E1   2.169503579732776E1  -1.009384037038040E1  -2.628973317985630E1  -1.495805083219545E2  -1.645406802892380E1   1.673474486973601E1  
 2.015000000000000E9    -1.655153683149868E1   6.903292011258584E1   2.168250343716135E1  -1.093451331792551E1  -2.640514757372143E1  -1.499037881573494E2  -1.646708984225584E1   1.667546559015109E1  
 2.017500000000000E9    -1.626683975643994E1   6.949022179694806E1   2.169667735851766E1  -1.147181177593842E1  -2.632894896277845E1  -1.501465536745456E2  -1.668304966596334E1   1.716946673652290E1  
 2.020000000000000E9    -1.633895168667811E1   6.821825199925189E1   2.169504908912263E1  -1.242476791453776E1  -2.633112807350472E1  -1.509491585349446E2  -1.674928612980128E1   1.746175762215510E1  
 2.022500000000000E9    -1.628345374028676E1   6.741851488034489E1   2.167441932170389E1  -1.291281937508287E1  -2.631828094036245E1  -1.514376913566727E2  -1.661407886803091E1   1.664324870008395E1  
 2.025000000000000E9    -1.635176644562723E1   6.544630342349527E1   2.168523313624112E1  -1.373059550270852E1  -2.629933671841723E1  -1.522373272290003E2  -1.667715958748003E1   1.567170620012113E1  
 2.027500000000000E9    -1.636609675898530E1   6.467257967069801E1   2.167446435480635E1  -1.445427187146150E1  -2.628352712190114E1  -1.530776154037496E2  -1.675674735479128E1   1.586426531415763E1  
 2.030000000000000E9    -1.622623372374384E1   6.293275417130532E1   2.169085410101662E1  -1.520821830339647E1  -2.625743890007605E1  -1.531093614080444E2  -1.680116822419668E1   1.588531288740823E1  
 2.032500000000000E9    -1.634709312711992E1   6.166395411209404E1   2.169383989514574E1  -1.589619627890113E1  -2.626245884934513E1  -1.543778446941623E2  -1.677663371267667E1   1.695540592222013E1  
 2.035000000000000E9    -1.628603120045399E1   6.137912506203526E1   2.170639836433303E1  -1.668575168346840E1  -2.628481812377729E1  -1.552480859792308E2  -1.682180447629838E1   1.622458417673541E1  
 2.037500000000000E9    -1.624350357356231E1   6.006703296590244E1   2.167804134985006E1  -1.723986015675471E1  -2.635954449922694E1  -1.560844635029337E2  -1.673337271100272E1   1.596361227940673E1  
 2.040000000000000E9    -1.630850950518371E1   5.911687137631490E1   2.169065732877552E1  -1.790878843288757E1  -2.624605960997889E1  -1.565995540114895E2  -1.672802750987698E1   1.606377928672898E1  
 2.042500000000000E9    -1.633941987606799E1   5.828799659552087E1   2.169371037123979E1  -1.867491949413256E1  -2.638667019413602E1  -1.568026223604066E2  -1.678808624970919E1   1.596282580374749E1  
 2.045000000000000E9    -1.634063586102652E1   5.677316774519308E1   2.167563995104391E1  -1.951373079865605E1  -2.632289545865553E1  -1.572166992718455E2  -1.676040153777852E1   1.580117999203020E1  
 2.047500000000000E9    -1.618855592442466E1   5.548313724459074E1   2.169108103622297E1  -2.004968296327334E1  -2.626907672790394E1  -1.583250380195630E2  -1.676328277494860E1   1.672346378814148E1  
 2.050000000000000E9    -1.614763316913581E1   5.412594577472904E1   2.167950446316119E1  -2.093276870860188E1  -2.630232945394874E1  -1.588536965786142E2  -1.679773561508970E1   1.657302962478978E1  
 2.052500000000000E9    -1.618595192658589E1   5.287541744354506E1   2.166238666241176E1  -2.152572906693311E1  -2.629334615234871E1  -1.595595031245467E2  -1.687912562482401E1   1.602666074228462E1  
 2.055000000000000E9    -1.608601011084192E1   5.166888874900614E1   2.167323563035590E1  -2.239487970691143E1  -2.637602750704611E1  -1.601473564302870E2  -1.690824992010792E1   1.664925177085875E1  
 2.057500000000000E9    -1.618406011898124E1   5.064102567442976E1   2.167230412506517E1  -2.309537139346664E1  -2.630828550926897E1  -1.610851177417997E2  -1.691506865614460E1   1.497326515930554E1  
 2.060000000000000E9    -1.617617624933873E1   4.945608371618926E1   2.168465258286977E1  -2.374579965807197E1  -2.633605101122179E1  -1.618680324767279E2  -1.688100267589470E1   1.564368089689809E1  
 2.062500000000000E9    -1.611470404198266E1   4.820054472889892E1   2.168579495255751E1  -2.437248237142769E1  -2.632855923165788E1  -1.626782400327906E2  -1.713657629342262E1   1.484498721412973E1  
 2.065000000000000E9    -1.585177330464259E1   4.778992441107127E1   2.168642261929433E1  -2.519982744545622E1  -2.627257152944660E1  -1.631607724231947E2  -1.694935929577144E1   1.498751939564306E1  
 2.067500000000000E9    -1.605497551537193E1   4.674509171297586E1   2.170902784192382E1  -2.585435273067366E1  -2.631016590061005E1  -1.641817782712118E2  -1.686989334785688E1   1.501769249742349E1  
 2.070000000000000E9    -1.612288714206421E1   4.437133721713012E1   2.164953113998435E1  -2.665754926862313E1  -2.639683775596913E1  -1.646091969410068E2  -1.692291625446914E1   1.533602258382852E1  
 2.072500000000000E9    -1.593857141358645E1   4.534824445545117E1   2.165784686887029E1  -2.736391510300489E1  -2.636040728149185E1  -1.647131702518414E2  -1.691366581558916E1   1.386848918646463E1  
 2.075000000000000E9    -1.612204332244469E1   4.423949644295625E1   2.164661076117631E1  -2.798908218643284E1  -2.633346593997664E1  -1.656517305777707E2  -1.708996058450781E1   1.474139817347236E1  
 2.077500000000000E9    -1.603186559131947E1   4.257745210028553E1   2.168661809286408E1  -2.861572493289964E1  -2.631298780525707E1  -1.658974419769666E2  -1.712400620750021E1   1.495058771672410E1  
 2.080000000000000E9    -1.588149109240432E1   4.068628285136748E1   2.169595163738691E1  -2.942395543317003E1  -2.635312778909803E1  -1.670290606168992E2  -1.694585190472116E1   1.474296268346204E1  
 2.082500000000000E9    -1.607057992511350E1   3.883302607432257E1   2.168111601724855E1  -3.031563951094183E1  -2.629161910407251E1  -1.672035510711965E2  -1.703147112253742E1   1.508179643015338E1  
 2.085000000000000E9    -1.612189913723797E1   3.819879015018471E1   2.168786139289536E1  -3.093019864545924E1  -2.626154990553689E1  -1.686823374069131E2  -1.714507131580459E1   1.406803726271478E1  
 2.087500000000000E9    -1.608948463662750E1   3.676356945445019E1   2.166349821180473E1  -3.163995890824568E1  -2.630154702138283E1  -1.692954689675482E2  -1.715625957421936E1   1.382270566273348E1  
 2.090000000000000E9    -1.602601771589918E1   3.619097910445782E1   2.169264106826357E1  -3.235062024076584E1  -2.630389235558364E1  -1.697718457226449E2  -1.713988547787695E1   1.327625349784813E1  
 2.092500000000000E9    -1.595210634758500E1   3.513854396814083E1   2.165386269229969E1  -3.296976128571676E1  -2.628709352743864E1  -1.703880544384892E2  -1.727443102883143E1   1.352908272398780E1  
 2.095000000000000E9    -1.587442426622684E1   3.264560682241225E1   2.166957582453560E1  -3.390309195593764E1  -2.634245086060809E1  -1.713250759907488E2  -1.709267855784825E1   1.337426785665319E1  
 2.097500000000000E9    -1.594462293701444E1   3.340716423232271E1   2.166567099162064E1  -3.448687003958523E1  -2.637175938232267E1  -1.719726500836533E2  -1.731162980345477E1   1.304597384496802E1  
 2.100000000000000E9    -1.570908896150147E1   3.213113583426578E1   2.167613815609348E1  -3.519283766980868E1  -2.630795302727413E1  -1.724858278201901E2  -1.695686771528947E1   1.223134093650317E1  
 2.102500000000000E9    -1.575309396559702E1   3.022015662719875E1   2.167821302016421E1  -3.605052846420148E1  -2.630662876182734E1  -1.730862159999515E2  -1.722438326542984E1   1.388897132108059E1  
 2.105000000000000E9    -1.586296161791481E1   2.987072458367418E1   2.165010462538892E1  -3.669981016232808E1  -2.638814541944926E1  -1.737118398052880E2  -1.698935853651564E1   1.279905296035955E1  
 2.107500000000000E9    -1.591658446106292E1   2.711194672051971E1   2.164741419943317E1  -3.737210262086214E1  -2.633830172483330E1  -1.741588599468766E2  -1.716695604297644E1   1.322669850333055E1  
 2.110000000000000E9    -1.582687881622124E1   2.652351343639495E1   2.164458371359284E1  -3.801094823105757E1  -2.633454218856611E1  -1.752436598486677E2  -1.709511218546234E1   1.379882271863514E1  
 2.112500000000000E9    -1.588624825605097E1   2.539632862458922E1   2.165644681711057E1  -3.873241607903532E1  -2.629809871560965E1  -1.753423534601599E2  -1.727352176740754E1   1.272273860116371E1  
 2.115000000000000E9    -1.565959518529961E1   2.524359356014182E1   2.162522408319152E1  -3.958653437996214E1  -2.634495940343047E1  -1.764647317410475E2  -1.727740254270007E1   1.354986315673119E1  
 2.117500000000000E9    -1.576274970909933E1   2.324415924198922E1   2.165019353723348E1  -4.003620698930067E1  -2.632661950257306E1  -1.773912277532158E2  -1.732586363519526E1   1.411684345718284E1  
 2.120000000000000E9    -1.590772185376561E1   2.252667811746359E1   2.165423405309401E1  -4.073954880919871E1  -2.636390357115124E1  -1.778517536369031E2  -1.736378965050569E1   1.275225965830597E1  
 2.122500000000000E9    -1.573938347350061E1   2.122309785377172E1   2.164228890076749E1  -4.144496075859414E1  -2.631689920896507E1  -1.782588698814504E2  -1.737687016070749E1   1.165857627325466E1  
 2.125000000000000E9    -1.573614017173435E1   2.027206271075812E1   2.165269398377732E1  -4.238343821865533E1  -2.637596427176992E1  -1.790715556535765E2  -1.729740973030187E1   1.176470704263539E1  
 2.127500000000000E9    -1.573254922542887E1   1.908987516591099E1   2.167824194802303E1  -4.304019493070823E1  -2.633508360686061E1   1.799523796598964E2  -1.720917154764597E1   1.249916960574640E1  
 2.130000000000000E9    -1.565078085171852E1   1.772871737640247E1   2.166824646883873E1  -4.368720038067875E1  -2.633975239475872E1   1.793915552975077E2  -1.712213608810564E1   1.084461791294598E1  
 2.132500000000000E9    -1.556150066333538E1   1.585993211913318E1   2.164962028934373E1  -4.466224311591423E1  -2.631130648747223E1   1.786537498746200E2  -1.734226855686383E1   1.177839908187549E1  
 2.135000000000000E9    -1.546128657067608E1   1.648800300202460E1   2.164829965568439E1  -4.515607820204384E1  -2.632877323972641E1   1.783351557071174E2  -1.708469378618977E1   1.262474774386821E1  
 2.137500000000000E9    -1.571940618880514E1   1.492081453833516E1   2.164764834606430E1  -4.589973339106295E1  -2.630645159626606E1   1.773633539529379E2  -1.703652895303787E1   1.295173330184574E1  
 2.140000000000000E9    -1.570221136364063E1   1.256881032002882E1   2.166933676426887E1  -4.659468724287779E1  -2.631568757507386E1   1.771446740108585E2  -1.709830538687611E1   1.266214348940808E1  
 2.142500000000000E9    -1.550397601223581E1   1.206262909048324E1   2.165596954867957E1  -4.733872494467083E1  -2.634913171448093E1   1.762598281128652E2  -1.715034210292344E1   1.290662727715486E1  
 2.145000000000000E9    -1.560839235624051E1   1.074318069979649E1   2.163621638721942E1  -4.812878543504881E1  -2.635785447985302E1   1.753954104462237E2  -1.718498844231198E1   1.302160069330191E1  
 2.147500000000000E9    -1.557443331473406E1   9.329740964836596   2.164455392253282E1  -4.862931167616473E1  -2.627743255351550E1   1.748919739621925E2  -1.723797241076021E1   1.288371186760780E1  
 2.150000000000000E9    -1.564132930755040E1   8.358902616714088   2.164435431592465E1  -4.935478081284363E1  -2.633382840077958E1   1.740655336173786E2  -1.743703274649619E1   1.224500060959691E1  
 2.152500000000000E9    -1.559859948491094E1   7.502388857537437   2.163057132178377E1  -5.021830033947429E1  -2.630077111938178E1   1.737319279449222E2  -1.748216901946760E1   1.315683679753285E1  
 2.155000000000000E9    -1.561299859691309E1   6.788259085436336   2.164969745355042E1  -5.094421267839914E1  -2.633862084694081E1   1.727120587689253E2  -1.722676696536908E1   1.101338410040080E1  
 2.157500000000000E9    -1.564165589310017E1   4.767488261992988   2.164625756987009E1  -5.147847324660494E1  -2.627379251776878E1   1.722085434026609E2  -1.745689571210405E1   1.101239384019396E1  
 2.160000000000000E9    -1.536816232838513E1   3.322349793952782   2.165559186902416E1  -5.239468070012789E1  -2.629969856601500E1   1.715934605403401E2  -1.746683285146158E1   1.110708443601645E1  
 2.162500000000000E9    -1.571028201457576E1   3.035097797775815   2.163809983750656E1  -5.293357436627596E1  -2.639480088722548E1   1.708805300718830E2  -1.713391966250761E1   1.137704368536162E1  
 2.165000000000000E9    -1.555529633641902E1   2.656925493225157   2.164240683461637E1  -5.386274596450816E1  -2.633746737362436E1   1.702206062153771E2  -1.712680043981015E1   1.143239129126557E1  
 2.167500000000000E9    -1.555851782284036E1   2.552754059174821E-1   2.163298795175785E1  -5.444477070804211E1  -2.629444838299772E1   1.697446640138149E2  -1.701538330622769E1   1.217713571493192E1  
 2.170000000000000E9    -1.560158050093417E1  -1.208002045456675   2.164972257504260E1  -5.524230678646950E1  -2.635564796322337E1   1.689133253097849E2  -1.722656250470265E1   1.255803139600997E1  
 2.172500000000000E9    -1.555708706213465E1  -1.884050172186184   2.165309038136463E1  -5.588839347996757E1  -2.639202363793927E1   1.682046902017000E2  -1.721093454173795E1   1.270637572527710E1  
 2.175000000000000E9    -1.533761733273098E1  -3.280854793142377   2.167313449223700E1  -5.667276366181199E1  -2.634612740419620E1   1.671821745557692E2  -1.729177139883185E1   1.226986304793876E1  
 2.177500000000000E9    -1.543903182795172E1  -5.290186699628164   2.163645531211206E1  -5.727084950111240E1  -2.635835507590731E1   1.669752376747981E2  -1.755370698184354E1   1.274112112452993E1  
 2.180000000000000E9    -1.539949358985338E1  -5.949513911194441   2.163868149137645E1  -5.812891274554708E1  -2.635107198509121E1   1.660923180453737E2  -1.740471427407622E1   1.134600715031975E1  
 2.182500000000000E9    -1.540616304657702E1  -5.097833309655684   2.163215132751487E1  -5.885177530449774E1  -2.633949909976151E1   1.657812059338110E2  -1.736310175186912E1   1.213225982371650E1  
 2.185000000000000E9    -1.547719600975568E1  -6.359079765004137   2.162200999916641E1  -5.940005915269757E1  -2.625642596407750E1   1.651319151777352E2  -1.755431664242956E1   1.058329253152520E1  
 2.187500000000000E9    -1.537881673935542E1  -7.948111300881259   2.164134118566027E1  -6.005300964024091E1  -2.636301278548293E1   1.639238629698746E2  -1.742823462606691E1   9.650605367734425  
 2.190000000000000E9    -1.524595768722825E1  -1.010203803162387E1   2.161345067364908E1  -6.088605065301670E1  -2.632464657093980E1   1.630455375510508E2  -1.729150086589368E1   1.072441980796389E1  
 2.192500000000000E9    -1.542154342732045E1  -1.062924659646826E1   2.163813342293377E1  -6.155481524560874E1  -2.635075008095611E1   1.630141784991355E2  -1.717503011795189E1   1.009716206769599E1  
 2.195000000000000E9    -1.544470792880865E1  -1.155900853144637E1   2.162776775443955E1  -6.229208374528396E1  -2.643602606834869E1   1.622177557392348E2  -1.729865611624109E1   9.796126469687181  
 2.197500000000000E9    -1.530546783564045E1  -1.318239241618236E1   2.164215016240043E1  -6.324157283123603E1  -2.640930726385930E1   1.617481774997465E2  -1.718636909726908E1   1.027225953435702E1  
 2.200000000000000E9    -1.529405029509601E1  -1.429012374019353E1   2.161442732108901E1  -6.389585319971164E1  -2.640000668249339E1   1.608287706284174E2  -1.720321300590274E1   1.049919910477567E1  
 2.202500000000000E9    -1.521049740401816E1  -1.525488627785295E1   2.162852844398605E1  -6.455278468873139E1  -2.620974130036149E1   1.607650472809879E2  -1.708716049915675E1   1.101687404558823E1  
 2.205000000000000E9    -1.542358019032426E1  -1.525503359301430E1   2.163576397086585E1  -6.528225176902394E1  -2.643600916628561E1   1.594723646448022E2  -1.717971136999172E1   1.099304041317348E1  
 2.207500000000000E9    -1.528153386062739E1  -1.745969067300711E1   2.159087708547945E1  -6.593191637381361E1  -2.634514833815358E1   1.587428726010312E2  -1.740278287220378E1   1.109583545136717E1  
 2.210000000000000E9    -1.542191859534769E1  -1.793719485432516E1   2.163603391011755E1  -6.670443008791439E1  -2.631452772183552E1   1.580428978425760E2  -1.734488796564594E1   9.822464478901637  
 2.212500000000000E9    -1.543858576824136E1  -1.976852714218362E1   2.161066205130851E1  -6.731619644639247E1  -2.632102821228001E1   1.574968018421123E2  -1.765565513294913E1   9.405392094802835  
 2.215000000000000E9    -1.538529951451342E1  -2.042012861554838E1   2.162840208846230E1  -6.799522710771505E1  -2.633420158187583E1   1.566379562311691E2  -1.743887230787310E1   9.539810095181039  
 2.217500000000000E9    -1.533736768114307E1  -2.137314486583003E1   2.162212354810652E1  -6.875531876155827E1  -2.630159629596459E1   1.554507426255766E2  -1.751081923589846E1   8.261075086907951  
 2.220000000000000E9    -1.522510919276419E1  -2.319924039511062E1   2.162770268478482E1  -6.936696431946164E1  -2.630641230677773E1   1.547625286338012E2  -1.738463899145474E1   7.453977982283788  
 2.222500000000000E9    -1.541927008907466E1  -2.421005384784484E1   2.162786161896839E1  -7.028421348375669E1  -2.636315033661042E1   1.553673640636675E2  -1.725926454793726E1   7.618783290204229  
 2.225000000000000E9    -1.535441712532066E1  -2.441259023982486E1   2.164158959928944E1  -7.089940783438922E1  -2.640063224649552E1   1.539268152073075E2  -1.726812396358473E1   8.847404900896200  
 2.227500000000000E9    -1.516936856293029E1  -2.690896941043839E1   2.162631359306079E1  -7.172374504761537E1  -2.634376883426909E1   1.539756726248014E2  -1.714973989033896E1   8.478597580264923  
 2.230000000000000E9    -1.522479961702557E1  -2.697971021330713E1   2.163504042726444E1  -7.234481379010904E1  -2.638901887964354E1   1.525494129915145E2  -1.698523930172905E1   9.926511931466147  
 2.232500000000000E9    -1.520471546088741E1  -2.864667551262683E1   2.160881093548230E1  -7.323715223603826E1  -2.628797421700654E1   1.522785349064245E2  -1.707626546397024E1   1.005094967310065E1  
 2.235000000000000E9    -1.524379924106224E1  -3.015406616726563E1   2.159441504389029E1  -7.384041264904403E1  -2.643039109127954E1   1.517608095984041E2  -1.721684223032557E1   8.746026276069330  
 2.237500000000000E9    -1.507281390959310E1  -3.052248180748087E1   2.161567880388148E1  -7.456521626363488E1  -2.623638786544593E1   1.498692434915635E2  -1.712402225750288E1   1.017478812477687E1  
 2.240000000000000E9    -1.518400202215050E1  -3.260297827741566E1   2.162230646517599E1  -7.523560927868932E1  -2.623125492686607E1   1.491808817838025E2  -1.735721748692859E1   8.069321657699362  
 2.242500000000000E9    -1.517511077776891E1  -3.305733422810058E1   2.159748134794943E1  -7.592020100059223E1  -2.639956858181066E1   1.494308175594367E2  -1.764767733932403E1   9.280385029692420  
 2.245000000000000E9    -1.500225382829850E1  -3.394963700843761E1   2.160559677453021E1  -7.651439278530202E1  -2.637889948999474E1   1.480023224787749E2  -1.743754984239293E1   7.898504609263182  
