#  HZ   S   DB   R     50.00 
! Rohde & Schwarz ZVA24 4Ports - Version 3.60 - 1145.1110k28 SN: 101513
! Date: 2019-09-25 19:30:09
! Measurements: S33 S43 S34 S44 
! 
 2.000000000000000E9    -1.600538947200177E1   6.009618755142591E1   2.175574342447906E1  -6.278022554433971  -2.628531906930778E1  -1.461071667086178E2  -1.471582207968883E1   1.581700774800817E1  
 2.002500000000000E9    -1.592555002806261E1   5.843410228327270E1   2.176872619967059E1  -7.000817617065239  -2.629091736674059E1  -1.466569488282796E2  -1.461640327027316E1   1.503721243857907E1  
 2.005000000000000E9    -1.589040724864971E1   5.791110576134479E1   2.178013702758423E1  -7.743318988933773  -2.629213718500520E1  -1.485932311173614E2  -1.449966139473730E1   1.607040065187832E1  
 2.007500000000000E9    -1.589044920145905E1   5.796492850804603E1   2.175981893015070E1  -8.384084558054827  -2.627553829244125E1  -1.488678187036578E2  -1.467002372483100E1   1.494494159034578E1  
 2.010000000000000E9    -1.597985109744078E1   5.599626511979594E1   2.177991804806569E1  -8.951561550280092  -2.627259095681343E1  -1.496750942533600E2  -1.459391678635136E1   1.545681422205006E1  
 2.012500000000000E9    -1.587272526138966E1   5.552986625088252E1   2.172501993016333E1  -9.820461940881698  -2.629759524905450E1  -1.503538016711862E2  -1.468762674829902E1   1.487435135129904E1  
 2.015000000000000E9    -1.595916953426500E1   5.346233989836571E1   2.170549696022340E1  -1.058211045013603E1  -2.628631250061267E1  -1.506139205330046E2  -1.466253897772259E1   1.463897218641363E1  
 2.017500000000000E9    -1.587400273655751E1   5.389749153505552E1   2.172627550322912E1  -1.110935052828600E1  -2.628809825655804E1  -1.512586520914976E2  -1.479395688124230E1   1.456555253839926E1  
 2.020000000000000E9    -1.596420855046071E1   5.268448614401316E1   2.172856801755533E1  -1.188103102540643E1  -2.630689893661828E1  -1.520991357395145E2  -1.487487679044341E1   1.546341781282274E1  
 2.022500000000000E9    -1.588231593926201E1   5.089898889186011E1   2.171838685903935E1  -1.260203777823911E1  -2.630860020782918E1  -1.524659330580094E2  -1.486049105432094E1   1.448548842066492E1  
 2.025000000000000E9    -1.579239122338671E1   4.940658305338472E1   2.172015696364194E1  -1.327553735631440E1  -2.628878339347222E1  -1.533770712301586E2  -1.476692081176971E1   1.400772066240796E1  
 2.027500000000000E9    -1.590080020290806E1   4.788072119979766E1   2.171682385667268E1  -1.403253159282761E1  -2.630031331984567E1  -1.540351231602732E2  -1.490687573973801E1   1.365796394878410E1  
 2.030000000000000E9    -1.567106873481225E1   4.776372485952894E1   2.171997766440699E1  -1.469738435304532E1  -2.629656788294755E1  -1.548261024242481E2  -1.482366601037132E1   1.379502307864519E1  
 2.032500000000000E9    -1.577086717393184E1   4.555519176419630E1   2.172011362382168E1  -1.554281115280164E1  -2.627878036702278E1  -1.549954616184287E2  -1.495970637839949E1   1.381125663424567E1  
 2.035000000000000E9    -1.572730383360296E1   4.513200144592658E1   2.173176615940368E1  -1.628112963815005E1  -2.640320769171859E1  -1.559298260239334E2  -1.465119515805118E1   1.233041470254751E1  
 2.037500000000000E9    -1.570303992330638E1   4.336478736016622E1   2.173071762263260E1  -1.681414989307753E1  -2.631424990267731E1  -1.569652632067764E2  -1.478532850175195E1   1.250598112271839E1  
 2.040000000000000E9    -1.595159942707069E1   4.262867428099291E1   2.171064035603228E1  -1.754603740198504E1  -2.634653864405794E1  -1.573416896379701E2  -1.493064827514361E1   1.230817925991424E1  
 2.042500000000000E9    -1.575713628425886E1   4.189369229255002E1   2.170826432938095E1  -1.816761622732565E1  -2.642242250718564E1  -1.578083503473542E2  -1.491117092557909E1   1.218420752111683E1  
 2.045000000000000E9    -1.582506054745175E1   4.078999476164438E1   2.169509877267282E1  -1.909884859048252E1  -2.640048560375452E1  -1.586348466104134E2  -1.490746188803385E1   1.304731424460686E1  
 2.047500000000000E9    -1.564358795293883E1   4.070395753545024E1   2.171129590157146E1  -1.965391792705006E1  -2.636738534065812E1  -1.591255040920861E2  -1.490172445352011E1   1.282301323032576E1  
 2.050000000000000E9    -1.570963878299106E1   3.925650542049535E1   2.172073939774186E1  -2.040214243994353E1  -2.629785626368186E1  -1.599934095820385E2  -1.495823749270836E1   1.230512742997698E1  
 2.052500000000000E9    -1.559692694604641E1   3.680914721283547E1   2.171576381485655E1  -2.105209526977389E1  -2.635003055913255E1  -1.604968263502026E2  -1.505516272714435E1   1.261776368972287E1  
 2.055000000000000E9    -1.568545192160685E1   3.701255916141351E1   2.170333943006389E1  -2.200386782826720E1  -2.628378830016063E1  -1.613349329221779E2  -1.504107787082953E1   1.220903164594595E1  
 2.057500000000000E9    -1.568787530623943E1   3.561796851710963E1   2.170420045738837E1  -2.263413703940387E1  -2.629020652603114E1  -1.620334865793610E2  -1.501613836968247E1   1.131392723470183E1  
 2.060000000000000E9    -1.573568077329004E1   3.502368634104460E1   2.170678066168776E1  -2.326880329861455E1  -2.622871233639992E1  -1.631837817027897E2  -1.509554071449866E1   1.176468934618004E1  
 2.062500000000000E9    -1.561101070897766E1   3.339314348081216E1   2.170480521472635E1  -2.396014983421324E1  -2.627282606699772E1  -1.638735577637439E2  -1.511407599871018E1   1.097669291309752E1  
 2.065000000000000E9    -1.539495043895658E1   3.302681815531486E1   2.171083422657472E1  -2.472860513323694E1  -2.628758351426738E1  -1.643366121298250E2  -1.515772747059902E1   1.132772455782433E1  
 2.067500000000000E9    -1.557732489013609E1   3.170116465708779E1   2.171734367341354E1  -2.540009775430792E1  -2.634504393446465E1  -1.648306088083155E2  -1.513759495478636E1   1.062630578240998E1  
 2.070000000000000E9    -1.552196863408213E1   2.976159977254346E1   2.169611159074508E1  -2.619456074736904E1  -2.629035611246848E1  -1.652211630762114E2  -1.504956297550088E1   1.133660281518996E1  
 2.072500000000000E9    -1.550757598977794E1   2.953964064103309E1   2.170526024784763E1  -2.686626219888685E1  -2.632997346853291E1  -1.659420121813441E2  -1.511125010327731E1   1.103851706816040E1  
 2.075000000000000E9    -1.563291528395509E1   2.815173989194762E1   2.170830504335731E1  -2.744754795216862E1  -2.635580515795027E1  -1.667294441813492E2  -1.509449541423034E1   1.123382512458125E1  
 2.077500000000000E9    -1.557722552847897E1   2.713402465343904E1   2.175402552155522E1  -2.813380623426916E1  -2.635951595306473E1  -1.671684753644960E2  -1.505266514192940E1   1.060861001198209E1  
 2.080000000000000E9    -1.550774261061114E1   2.517066685098918E1   2.175218437468184E1  -2.898110157380800E1  -2.631333524179775E1  -1.680208356195610E2  -1.505619373722620E1   9.870248532018291  
 2.082500000000000E9    -1.544115051404800E1   2.507072826820573E1   2.169149276509087E1  -2.977422021797726E1  -2.628477444251509E1  -1.687390338380476E2  -1.521020516201302E1   1.089373434971134E1  
 2.085000000000000E9    -1.551558853348073E1   2.391368266613772E1   2.172649184936368E1  -3.039987243983799E1  -2.635329731568353E1  -1.695403306238546E2  -1.507246643358012E1   9.970735159172611  
 2.087500000000000E9    -1.542560402703411E1   2.166964818597987E1   2.173230493499041E1  -3.109861927043390E1  -2.627504532975854E1  -1.703257120281338E2  -1.512844284197729E1   9.262067484652157  
 2.090000000000000E9    -1.547591886650137E1   2.192463212871448E1   2.171598210103173E1  -3.184426843996362E1  -2.633898138233554E1  -1.706843954729656E2  -1.518388841323342E1   8.516656075696327  
 2.092500000000000E9    -1.535004503991631E1   1.973445501321716E1   2.170906959424756E1  -3.258788115263130E1  -2.632582190266501E1  -1.717982151983592E2  -1.517776351251126E1   8.850737919745839  
 2.095000000000000E9    -1.536544025518007E1   1.895507276735189E1   2.170419120862091E1  -3.330723172037232E1  -2.637168200255125E1  -1.722154152055457E2  -1.514061775814160E1   8.284472009777938  
 2.097500000000000E9    -1.540081176974795E1   1.789952036454088E1   2.173516044714253E1  -3.402797307950484E1  -2.636897378140378E1  -1.727996543440749E2  -1.531103179527098E1   8.277090034962455  
 2.100000000000000E9    -1.525843102808279E1   1.710477411235570E1   2.172370380970353E1  -3.459561380550321E1  -2.642734261740894E1  -1.732932691276658E2  -1.501306635826405E1   7.684951693896502  
 2.102500000000000E9    -1.521980631044456E1   1.585140667041004E1   2.173821911886257E1  -3.542917976592871E1  -2.633353017811700E1  -1.736740703757366E2  -1.516301674542663E1   8.326435793836128  
 2.105000000000000E9    -1.534546059600316E1   1.476211088864152E1   2.173234907636570E1  -3.627354913446528E1  -2.633386413118894E1  -1.748642644432995E2  -1.507896703606197E1   8.704741611391404  
 2.107500000000000E9    -1.536111423665977E1   1.303137043835598E1   2.172499207228323E1  -3.680804924343541E1  -2.631577149931209E1  -1.757179441453537E2  -1.520690601914096E1   8.332333046577107  
 2.110000000000000E9    -1.525540780501910E1   1.255264856585070E1   2.170654847133513E1  -3.753999539427448E1  -2.636318636708335E1  -1.764515492806834E2  -1.510539451557479E1   8.455604344707265  
 2.112500000000000E9    -1.525683271157703E1   1.153742476641849E1   2.171579190972978E1  -3.825160441920792E1  -2.629517597678374E1  -1.766541557126214E2  -1.541832978658948E1   7.395454113398530  
 2.115000000000000E9    -1.512074457705680E1   1.039420419908792E1   2.173611843738715E1  -3.900362288542251E1  -2.630286924152122E1  -1.774644298767393E2  -1.537080089951737E1   8.002956832553323  
 2.117500000000000E9    -1.511076363617434E1   9.953521973237297   2.167237496302259E1  -3.967571207090109E1  -2.632203820881735E1  -1.788773428863320E2  -1.545167530839819E1   8.302136288101925  
 2.120000000000000E9    -1.534258853464900E1   9.035751560425871   2.171113773742826E1  -4.025287818108775E1  -2.633161481962728E1  -1.790205664097530E2  -1.530166508533325E1   8.105011617259216  
 2.122500000000000E9    -1.522945745376868E1   7.966255412469873   2.167293014125424E1  -4.097698799850103E1  -2.635352541373152E1  -1.796852135495934E2  -1.546495017220913E1   5.514505692489802  
 2.125000000000000E9    -1.518219804014642E1   5.586432014267863   2.169997642387139E1  -4.186682489317869E1  -2.637954230243233E1   1.797661051079774E2  -1.526537741528096E1   5.712469509341529  
 2.127500000000000E9    -1.510066572600336E1   5.515818196618215   2.174746585175512E1  -4.249061051049342E1  -2.633805682177837E1   1.786201665158509E2  -1.532144950953816E1   6.084197094611142  
 2.130000000000000E9    -1.504963785223182E1   3.848155581460495   2.172790090388746E1  -4.314958219209599E1  -2.634373478746974E1   1.784838787170569E2  -1.522193243203999E1   4.761323103084378  
 2.132500000000000E9    -1.504751925138435E1   2.448981084815370   2.169398362125956E1  -4.413414002112277E1  -2.633432311175274E1   1.780589845767923E2  -1.535582356522354E1   5.645195371646917  
 2.135000000000000E9    -1.508929902629818E1   2.633400918782931   2.171097693934969E1  -4.468955381953806E1  -2.629004005404172E1   1.775844553489277E2  -1.514478464955266E1   6.216382806359809  
 2.137500000000000E9    -1.517337864459077E1   6.388545917277635E-1   2.172149146255393E1  -4.535689454553994E1  -2.632835926730173E1   1.762056353792096E2  -1.517809236453089E1   6.144518784481629  
 2.140000000000000E9    -1.507427377750864E1  -3.884806598924955E-1   2.171369947490410E1  -4.603551821428368E1  -2.639095276887940E1   1.755990580779017E2  -1.524902081385189E1   6.712405074777767  
 2.142500000000000E9    -1.495550428304831E1  -1.459242527500235   2.172042690646929E1  -4.674016918440302E1  -2.632303135815963E1   1.749054887617428E2  -1.544604675032234E1   5.797283246355793  
 2.145000000000000E9    -1.493986948602713E1  -2.252496753107019   2.169306870289132E1  -4.762439733537595E1  -2.633909553330072E1   1.744954065653654E2  -1.545985797618779E1   6.986604353187694  
 2.147500000000000E9    -1.501338942373550E1  -2.412282183971992   2.167303044681272E1  -4.795735669174560E1  -2.635952896008327E1   1.732476706261162E2  -1.551060450616100E1   5.988987190780860  
 2.150000000000000E9    -1.510305956685221E1  -3.982658710326697   2.168007014792298E1  -4.884479177192237E1  -2.630204233550931E1   1.726563693313994E2  -1.556920729108159E1   5.448174096809844  
 2.152500000000000E9    -1.491838649561653E1  -5.420193529997297   2.170686409933421E1  -4.964305831429478E1  -2.637434390340996E1   1.725112318883315E2  -1.567095369649503E1   5.187287549245265  
 2.155000000000000E9    -1.508107032759014E1  -5.322165032228957   2.167919159086285E1  -5.024439286404762E1  -2.635179041896854E1   1.719994475277184E2  -1.543405149023571E1   4.299269352660518  
 2.157500000000000E9    -1.498061911680036E1  -7.844508327045299   2.171635211344687E1  -5.113116575876451E1  -2.636174303703930E1   1.707685190621296E2  -1.569497277720771E1   3.959068384103183  
 2.160000000000000E9    -1.483233223521559E1  -9.110329710284599   2.169327112123738E1  -5.181247850521469E1  -2.630773964032060E1   1.706414703592897E2  -1.560309601470557E1   4.108449296017052  
 2.162500000000000E9    -1.501422452642137E1  -1.008723334836683E1   2.168355743543986E1  -5.237695351511179E1  -2.638686768620297E1   1.693345267153872E2  -1.534660991792658E1   3.733705662644707  
 2.165000000000000E9    -1.497829484589462E1  -1.035661387219925E1   2.172760877218990E1  -5.327292057901581E1  -2.631273974992906E1   1.693721559767845E2  -1.530406774134448E1   3.960535940581570  
 2.167500000000000E9    -1.505098244373486E1  -1.226710206974324E1   2.172440463330507E1  -5.396454392741907E1  -2.642911165433133E1   1.682476859694243E2  -1.523574859989897E1   4.285286987810719  
 2.170000000000000E9    -1.500958729472984E1  -1.382913608241645E1   2.171783086613383E1  -5.460942642545712E1  -2.637561151630982E1   1.681221246425659E2  -1.550176874052917E1   4.702217203637805  
 2.172500000000000E9    -1.501813829407777E1  -1.453358099563818E1   2.171624726707458E1  -5.531645569621108E1  -2.637714395189004E1   1.668339789110873E2  -1.546956628296631E1   5.164931908725316  
 2.175000000000000E9    -1.482228469529762E1  -1.504634859183168E1   2.172337295259784E1  -5.607333283547732E1  -2.637021203582707E1   1.667111426133680E2  -1.548609695163922E1   5.519253814265879  
 2.177500000000000E9    -1.485797664179454E1  -1.720675445986272E1   2.169596005099451E1  -5.670335359170502E1  -2.635575991622897E1   1.654791501856637E2  -1.563901375631847E1   5.281219240208411  
 2.180000000000000E9    -1.489054169149975E1  -1.843305903669354E1   2.170401597940722E1  -5.751111896041222E1  -2.626667677544529E1   1.652724732333665E2  -1.555023055549064E1   4.115328375230050  
 2.182500000000000E9    -1.487275228319193E1  -1.717460842789340E1   2.169553752423099E1  -5.826115634781969E1  -2.637654192140698E1   1.645744590346942E2  -1.559681013784995E1   4.273758462770098  
 2.185000000000000E9    -1.493247741802706E1  -1.940517819809368E1   2.167800547650931E1  -5.891920493032213E1  -2.639094184482858E1   1.636723914036851E2  -1.563102393290443E1   3.291966507201201  
 2.187500000000000E9    -1.486892891294851E1  -2.020266206653838E1   2.168235816496004E1  -5.949049503350724E1  -2.627122522499401E1   1.626570074961359E2  -1.586575391564059E1   2.650766759205053  
 2.190000000000000E9    -1.482793156672124E1  -2.104563406788358E1   2.167558961895631E1  -6.014110489245920E1  -2.629514516467850E1   1.625295649452215E2  -1.557592416762775E1   3.219596859810519  
 2.192500000000000E9    -1.486199596991053E1  -2.347081768624594E1   2.169847278018144E1  -6.093903665382953E1  -2.634360615688125E1   1.614249888816793E2  -1.542981046590813E1   2.294750743468906  
 2.195000000000000E9    -1.491149293373602E1  -2.403451309877138E1   2.171248373279979E1  -6.167897570770705E1  -2.644644475078876E1   1.614621052572967E2  -1.549390099776125E1   2.839451341951460  
 2.197500000000000E9    -1.485172709782942E1  -2.503650920422141E1   2.170070681402761E1  -6.248140824964138E1  -2.635741314950486E1   1.601319257590705E2  -1.542223664677685E1   2.806451910028253  
 2.200000000000000E9    -1.473870781215415E1  -2.534923455654555E1   2.168361639123516E1  -6.331876493777674E1  -2.638025509906288E1   1.603864891776782E2  -1.544586037232332E1   2.898334066113383  
 2.202500000000000E9    -1.476026711869151E1  -2.712796262118001E1   2.169673669328989E1  -6.394041770511628E1  -2.636797185868442E1   1.596612305124293E2  -1.545756271585698E1   3.617356416716598  
 2.205000000000000E9    -1.491256888619314E1  -2.727591379368596E1   2.169678535316195E1  -6.472230440730573E1  -2.625681167049518E1   1.581640033791451E2  -1.575865492081137E1   3.155728977199608  
 2.207500000000000E9    -1.487528027254542E1  -2.952128068536328E1   2.168135429384518E1  -6.534092913766352E1  -2.631017322098374E1   1.578793034786899E2  -1.582924415473747E1   3.096165253875542  
 2.210000000000000E9    -1.491390439215100E1  -2.964462812483951E1   2.170220481202088E1  -6.619404088941579E1  -2.634474594583313E1   1.568003831147313E2  -1.566150576891262E1   2.523273374669166  
 2.212500000000000E9    -1.483189533881454E1  -3.071436221026733E1   2.168738014912123E1  -6.678549631642520E1  -2.621870734952100E1   1.565837003964457E2  -1.598754457627035E1   1.603124547577811  
 2.215000000000000E9    -1.492252489793942E1  -3.201395647337482E1   2.170405307982962E1  -6.731853145416307E1  -2.635541512100458E1   1.549114542275326E2  -1.582333538089786E1   1.286785405633856  
 2.217500000000000E9    -1.493575745716053E1  -3.299043963325207E1   2.168212748790594E1  -6.803226593119190E1  -2.637895268565848E1   1.550141147001791E2  -1.583817412465155E1   1.850387406658195E-1  
 2.220000000000000E9    -1.476271600417956E1  -3.506400060369491E1   2.169417553941759E1  -6.873377645258785E1  -2.639776358856909E1   1.538363598962710E2  -1.572940838135832E1  -3.035552148476730E-1  
 2.222500000000000E9    -1.478117503594790E1  -3.532686148946218E1   2.165887723097242E1  -6.966289505322337E1  -2.638840759257865E1   1.536660990857378E2  -1.568504098251172E1   1.070720620671856E-1  
 2.225000000000000E9    -1.478704844869485E1  -3.581300053459125E1   2.168472826282981E1  -7.030708189525279E1  -2.645359372637910E1   1.532276887536508E2  -1.552280071584038E1   5.972901494958917E-1  
 2.227500000000000E9    -1.477686583912687E1  -3.818681604178110E1   2.168401641145229E1  -7.099784853448978E1  -2.634592609953925E1   1.521004563258384E2  -1.551408433998372E1   5.959270410039946E-1  
 2.230000000000000E9    -1.475584112704797E1  -3.791301722913678E1   2.169625500650436E1  -7.165530524285184E1  -2.634436175942354E1   1.525937911351121E2  -1.536771883362543E1   1.662992704683481  
 2.232500000000000E9    -1.475762329668811E1  -4.001334558561928E1   2.167711817604413E1  -7.270673568430584E1  -2.627582126032891E1   1.508587683563698E2  -1.551098884722661E1   1.924948527983429  
 2.235000000000000E9    -1.479190139433197E1  -4.211838509487812E1   2.167343939974788E1  -7.329842050856097E1  -2.627088270184669E1   1.505050536270296E2  -1.575774060033904E1   1.416706916500288  
 2.237500000000000E9    -1.467037112667196E1  -4.205101788967149E1   2.165601409689462E1  -7.386366287366009E1  -2.629560296782741E1   1.493448876285720E2  -1.545711267502867E1   1.276720755831825  
 2.240000000000000E9    -1.472079359288778E1  -4.320993433794418E1   2.167610826322829E1  -7.461898917134725E1  -2.632119731606291E1   1.487920848556510E2  -1.583209683676893E1  -1.096687184810783E-1  
 2.242500000000000E9    -1.472868905718297E1  -4.451143016752607E1   2.167409850034877E1  -7.516672839423625E1  -2.635871459271808E1   1.485499184131695E2  -1.601462202518584E1   1.882033580299484E-1  
 2.245000000000000E9    -1.459255994927391E1  -4.445788934743771E1   2.167136756120621E1  -7.577751442266151E1  -2.638108408667190E1   1.471103683679605E2  -1.581145765927734E1  -1.682100214374354  
