#  HZ   S   DB   R     50.00 
! Rohde & Schwarz ZVA24 4Ports - Version 3.60 - 1145.1110k28 SN: 101513
! Date: 2019-09-25 19:08:50
! Measurements: S33 S43 S34 S44 
! 
 2.000000000000000E9    -1.571031919806127E1   7.739596031585182E1   2.190815995766802E1  -7.867570408543579  -2.663572237423733E1  -1.447011173188886E2  -1.633920124167651E1   2.239540745976104E1  
 2.002500000000000E9    -1.559743714500532E1   7.561622502686409E1   2.191125395253858E1  -8.611649939856184  -2.661487838389879E1  -1.453518565079459E2  -1.644966693658500E1   2.181514373047799E1  
 2.005000000000000E9    -1.570426780553579E1   7.452817599768554E1   2.192135715783034E1  -9.251170915840511  -2.655683902084939E1  -1.465595213258844E2  -1.629055010111558E1   2.136329190702107E1  
 2.007500000000000E9    -1.556115134420829E1   7.415794156333547E1   2.190296530993428E1  -1.004626746651631E1  -2.658881158427386E1  -1.472059073326460E2  -1.643443027805506E1   2.148576552537153E1  
 2.010000000000000E9    -1.566059435968196E1   7.261484296036109E1   2.193807883542607E1  -1.065213232816139E1  -2.662826267899304E1  -1.476306438305548E2  -1.632872259236485E1   2.080966241429945E1  
 2.012500000000000E9    -1.551687625859806E1   7.154443290274247E1   2.189747687089578E1  -1.127624556630077E1  -2.661759881833892E1  -1.487984200312634E2  -1.631039336850783E1   2.073885383269354E1  
 2.015000000000000E9    -1.557726882767035E1   6.982039341570059E1   2.191068848779719E1  -1.217523036615299E1  -2.664676116970335E1  -1.491815134409404E2  -1.628534182136790E1   2.064923790126321E1  
 2.017500000000000E9    -1.548758947898449E1   6.910677202012856E1   2.191858504556316E1  -1.275600384131785E1  -2.666224700988817E1  -1.496398927846502E2  -1.651334669092753E1   2.104127846680089E1  
 2.020000000000000E9    -1.548830908962996E1   6.843426699965671E1   2.189132055674400E1  -1.355222799090630E1  -2.668940706280731E1  -1.502379063087048E2  -1.648494531730876E1   2.160522777991775E1  
 2.022500000000000E9    -1.542157729862574E1   6.701089185158354E1   2.189318755329215E1  -1.413817225133505E1  -2.667685288875692E1  -1.509566435629799E2  -1.644755244847376E1   2.014243440727656E1  
 2.025000000000000E9    -1.541964841467441E1   6.530864592945886E1   2.189462659292902E1  -1.486193550108767E1  -2.656265472855712E1  -1.513251235282839E2  -1.644649644477119E1   1.984385966264593E1  
 2.027500000000000E9    -1.556829893697066E1   6.451921492206986E1   2.187476240053274E1  -1.567930965538624E1  -2.658757899266477E1  -1.523480401280455E2  -1.657934176688227E1   2.103513552181380E1  
 2.030000000000000E9    -1.533977025429408E1   6.358791017761733E1   2.189858805955719E1  -1.636440843258364E1  -2.664332418826426E1  -1.525730197516389E2  -1.659454137887881E1   1.992626988690086E1  
 2.032500000000000E9    -1.548907983940203E1   6.255056401696390E1   2.189029742263891E1  -1.708717681764842E1  -2.659249211645905E1  -1.537334633006950E2  -1.658378124572147E1   2.110633059259656E1  
 2.035000000000000E9    -1.550669427435456E1   6.129141550020701E1   2.190175700470903E1  -1.779267463684876E1  -2.662910394097729E1  -1.544131832132376E2  -1.654250554500791E1   2.033244228749406E1  
 2.037500000000000E9    -1.541350970349332E1   5.892765676053462E1   2.187812150364379E1  -1.849786744255392E1  -2.663131163837316E1  -1.558050171508539E2  -1.645790858015284E1   2.005061253743361E1  
 2.040000000000000E9    -1.563825016385088E1   5.868499993661931E1   2.188037591837824E1  -1.915932155158666E1  -2.669907257773876E1  -1.557956143826422E2  -1.653010631613557E1   1.897017428831338E1  
 2.042500000000000E9    -1.543668158496901E1   5.797930699875406E1   2.188324341501720E1  -1.992389028550739E1  -2.671157348606926E1  -1.563170564506571E2  -1.664470928250480E1   1.994149433335715E1  
 2.045000000000000E9    -1.546917823394344E1   5.674966345170714E1   2.187341126837606E1  -2.079363764939901E1  -2.659577500002939E1  -1.567036448828193E2  -1.657273137564180E1   1.995529342381806E1  
 2.047500000000000E9    -1.536565102065396E1   5.593314388686488E1   2.188595600753143E1  -2.133937542170091E1  -2.660585319789576E1  -1.579902267001957E2  -1.656255558825439E1   2.010793628994213E1  
 2.050000000000000E9    -1.539505668835730E1   5.526772142524033E1   2.187464761284906E1  -2.209276650765736E1  -2.667613359081944E1  -1.580055840223767E2  -1.671696361599401E1   2.022297536327930E1  
 2.052500000000000E9    -1.536443900703321E1   5.250897926663040E1   2.187888264211777E1  -2.270390835586440E1  -2.662318379669468E1  -1.589372565573176E2  -1.667362335083302E1   1.996369525669179E1  
 2.055000000000000E9    -1.526391791935601E1   5.212438563474480E1   2.186255647626393E1  -2.364053957654635E1  -2.659239940466976E1  -1.594194712420576E2  -1.668167737178343E1   2.069875574479490E1  
 2.057500000000000E9    -1.535128898375778E1   5.100477632150964E1   2.187405051824322E1  -2.427246283350667E1  -2.656258467328298E1  -1.602255131098356E2  -1.680006794900991E1   1.944515249006957E1  
 2.060000000000000E9    -1.537112920078031E1   4.968081059376182E1   2.187546157523899E1  -2.492944421758696E1  -2.655710650155087E1  -1.613187892863358E2  -1.700304440472642E1   1.973893231950096E1  
 2.062500000000000E9    -1.533355060162769E1   4.902542955561458E1   2.186560066624435E1  -2.552922444574708E1  -2.659374814421804E1  -1.615860934394938E2  -1.700237373950114E1   1.969631358263871E1  
 2.065000000000000E9    -1.518642373585132E1   4.857993811196543E1   2.187032398582224E1  -2.638760025298487E1  -2.670412771856098E1  -1.627481118833363E2  -1.683194246733768E1   1.863055013924960E1  
 2.067500000000000E9    -1.512904573517549E1   4.676016820768555E1   2.188765473454916E1  -2.704620047383332E1  -2.663855882125376E1  -1.632792725498329E2  -1.676978439690655E1   1.808339119888123E1  
 2.070000000000000E9    -1.539178437366299E1   4.611484080683684E1   2.185373204077108E1  -2.779285012514237E1  -2.662540977365893E1  -1.633837408305457E2  -1.680766155649983E1   1.930385025302993E1  
 2.072500000000000E9    -1.515607820036870E1   4.589235431129895E1   2.186907824171396E1  -2.855361416419033E1  -2.667719703323846E1  -1.642048906590065E2  -1.680473634278605E1   1.914309460829999E1  
 2.075000000000000E9    -1.534747708190990E1   4.466133597880059E1   2.185416276341234E1  -2.910242906094015E1  -2.662619764124219E1  -1.650415681744696E2  -1.702119840195252E1   1.828349018135188E1  
 2.077500000000000E9    -1.524382163771130E1   4.295282915027416E1   2.188158288244360E1  -2.988605982701800E1  -2.666507529172573E1  -1.656332972677950E2  -1.695644476694597E1   1.855774628083843E1  
 2.080000000000000E9    -1.507159050357854E1   4.162243437713742E1   2.189002708564492E1  -3.058605119931373E1  -2.663352466359150E1  -1.666332108097790E2  -1.691289865829014E1   1.873912639644007E1  
 2.082500000000000E9    -1.512966051767261E1   3.981894205758285E1   2.186497654607088E1  -3.154916740429075E1  -2.658599845935304E1  -1.667921265280077E2  -1.689225517398579E1   1.925996201426596E1  
 2.085000000000000E9    -1.525347839569881E1   3.954625607132329E1   2.187429290287286E1  -3.208943133906676E1  -2.664181482181950E1  -1.675477077094860E2  -1.695866778445276E1   1.766215727393702E1  
 2.087500000000000E9    -1.518113553699197E1   3.742927810421123E1   2.184858154040132E1  -3.281669896739502E1  -2.664849737201527E1  -1.682979235581768E2  -1.704557937854284E1   1.832462048859973E1  
 2.090000000000000E9    -1.513052474581409E1   3.704315908580998E1   2.188469448676955E1  -3.349534660120590E1  -2.659870968783478E1  -1.690829103078086E2  -1.717956933445136E1   1.826295234794714E1  
 2.092500000000000E9    -1.509902109974816E1   3.585421067857866E1   2.185301082198687E1  -3.419631426161826E1  -2.661506437575722E1  -1.697741752868252E2  -1.706476967137485E1   1.792293213847552E1  
 2.095000000000000E9    -1.493362811839591E1   3.454542445082841E1   2.186061822747983E1  -3.501758289815890E1  -2.661369908891609E1  -1.706094628430443E2  -1.704286747868933E1   1.701169417268872E1  
 2.097500000000000E9    -1.506727531205742E1   3.395041454531097E1   2.187133039418294E1  -3.569329615960290E1  -2.670206695463253E1  -1.708071429718661E2  -1.732244344526424E1   1.761968851730310E1  
 2.100000000000000E9    -1.497975404590584E1   3.236235994007832E1   2.187214580820282E1  -3.630486443996586E1  -2.668087631678186E1  -1.718423197972671E2  -1.686622949535543E1   1.642074975888114E1  
 2.102500000000000E9    -1.497584520371377E1   3.153792211208392E1   2.187452617556738E1  -3.720028934920614E1  -2.668111685069013E1  -1.722667803189874E2  -1.713523282073768E1   1.751684347871565E1  
 2.105000000000000E9    -1.499771269345108E1   3.015096487601184E1   2.183748491476184E1  -3.788065321820954E1  -2.662326308063972E1  -1.726632278800743E2  -1.695423465220304E1   1.602715652691860E1  
 2.107500000000000E9    -1.502264314077165E1   2.865814840905834E1   2.185800633883330E1  -3.851331221953261E1  -2.667056978542051E1  -1.736828010238289E2  -1.707492363093689E1   1.677001519875025E1  
 2.110000000000000E9    -1.494199179002480E1   2.824861667933496E1   2.183274644222178E1  -3.913657438796626E1  -2.661118805699305E1  -1.743660923190095E2  -1.711100083579493E1   1.689579907829973E1  
 2.112500000000000E9    -1.489884375054546E1   2.672544804844891E1   2.185040087579719E1  -3.997392123528402E1  -2.662493016595685E1  -1.749466248390363E2  -1.726622169464443E1   1.743594617573961E1  
 2.115000000000000E9    -1.487145269480700E1   2.560385373894206E1   2.185830985960082E1  -4.075521187616561E1  -2.661587198724218E1  -1.757066401340489E2  -1.727098178504725E1   1.822446930626609E1  
 2.117500000000000E9    -1.486396694720541E1   2.542399449213972E1   2.183017743529807E1  -4.128722275505965E1  -2.665203615250280E1  -1.764022564998577E2  -1.716478163646310E1   1.748190923797094E1  
 2.120000000000000E9    -1.497059078505954E1   2.415167971753754E1   2.185317163195776E1  -4.198403307050496E1  -2.660743426792308E1  -1.770144878420600E2  -1.729895853363827E1   1.716376985251777E1  
 2.122500000000000E9    -1.491769912204880E1   2.240396772701914E1   2.183156491599439E1  -4.270748869068155E1  -2.657486543758466E1  -1.775825177822886E2  -1.725177686315760E1   1.584765067772749E1  
 2.125000000000000E9    -1.480888954238733E1   2.142943481867480E1   2.182621024062760E1  -4.357647652107053E1  -2.662991228580042E1  -1.783015820364656E2  -1.722151949487545E1   1.576526242102536E1  
 2.127500000000000E9    -1.483190955789199E1   2.093089930164702E1   2.186157115107281E1  -4.420951525505078E1  -2.660603082085861E1  -1.791582782499791E2  -1.716237610849170E1   1.625005630595662E1  
 2.130000000000000E9    -1.475602141666552E1   1.813535103974864E1   2.186700066425723E1  -4.501283658449027E1  -2.661538133840915E1  -1.795264048781462E2  -1.716872205024956E1   1.521630531560363E1  
 2.132500000000000E9    -1.479700219873452E1   1.815781175136480E1   2.184572832659059E1  -4.585023855697157E1  -2.664055835675697E1   1.797986768572306E2  -1.734983844173553E1   1.586774745488815E1  
 2.135000000000000E9    -1.474527349532667E1   1.750853575594485E1   2.186705166933585E1  -4.646278545549750E1  -2.664645524705986E1   1.787337720689210E2  -1.716879461011288E1   1.636878159113908E1  
 2.137500000000000E9    -1.478664064122610E1   1.624067675738069E1   2.184425815086183E1  -4.708623329786973E1  -2.665767860194208E1   1.783010407611434E2  -1.707895680476457E1   1.691987417494064E1  
 2.140000000000000E9    -1.475188419306348E1   1.410667065117008E1   2.185378625991877E1  -4.776272537907320E1  -2.658110138323667E1   1.774871397668874E2  -1.697439462702566E1   1.716813462237848E1  
 2.142500000000000E9    -1.465755682438588E1   1.346152514517532E1   2.186073203427822E1  -4.849317905640606E1  -2.663877795793341E1   1.767977845390650E2  -1.702795639781701E1   1.658821941702161E1  
 2.145000000000000E9    -1.470241070494941E1   1.261867947845202E1   2.184798696343416E1  -4.938544855310215E1  -2.670046559034937E1   1.765374659509191E2  -1.718820021841619E1   1.723008411548542E1  
 2.147500000000000E9    -1.473549961927760E1   1.109573161488298E1   2.182386487419742E1  -4.986526492480162E1  -2.658663615389155E1   1.749520005492210E2  -1.733374238578183E1   1.699523482937758E1  
 2.150000000000000E9    -1.482909476660743E1   1.021259387192495E1   2.185901776967599E1  -5.052917347311722E1  -2.663145883974449E1   1.751500148821118E2  -1.727435117048164E1   1.644409536051194E1  
 2.152500000000000E9    -1.469142478971021E1   8.651612532716591   2.184536073350661E1  -5.144510891529279E1  -2.665566922253390E1   1.742851915980805E2  -1.759886483128581E1   1.781735381933076E1  
 2.155000000000000E9    -1.466587703726227E1   8.806996276027881   2.183981009402222E1  -5.212212716556213E1  -2.659605092306594E1   1.737810479572556E2  -1.736729115200161E1   1.590229386537542E1  
 2.157500000000000E9    -1.473362581791021E1   6.721301966705362   2.183144127645002E1  -5.287439326210175E1  -2.658822863210407E1   1.727116934663046E2  -1.752414698785679E1   1.558226524512172E1  
 2.160000000000000E9    -1.461619181829082E1   5.658372608642573   2.183114786569156E1  -5.360573638336845E1  -2.662937589108494E1   1.726310052635265E2  -1.750264916833863E1   1.530002287891376E1  
 2.162500000000000E9    -1.479440788119815E1   5.504669851387469   2.183196620253731E1  -5.414549866910206E1  -2.662812193986849E1   1.719535076141584E2  -1.722353849387817E1   1.429228312731460E1  
 2.165000000000000E9    -1.475899725834690E1   3.646848204709065   2.185719977677574E1  -5.512458324394778E1  -2.667606870913880E1   1.710890961217029E2  -1.715940361085928E1   1.566948441180410E1  
 2.167500000000000E9    -1.476937513724636E1   2.405428329892338   2.184048325236376E1  -5.581465495838818E1  -2.663420582080216E1   1.702624278936499E2  -1.712496026497993E1   1.590785474258530E1  
 2.170000000000000E9    -1.473956661829040E1   1.261081666597779   2.184228268735650E1  -5.639769163732694E1  -2.665192724077765E1   1.699967083844205E2  -1.728715297679001E1   1.615393760831891E1  
 2.172500000000000E9    -1.475186461197829E1   4.441142650032525E-1   2.184301866469339E1  -5.703359904587207E1  -2.670134671893450E1   1.689939598672349E2  -1.726244925674381E1   1.678402678156481E1  
 2.175000000000000E9    -1.452724548209075E1  -7.752951947445048E-1   2.185367090712691E1  -5.786953226636319E1  -2.664156127599678E1   1.682149037015701E2  -1.736563001178720E1   1.673860093831135E1  
 2.177500000000000E9    -1.465690660737107E1  -2.896116536117094   2.182350234862195E1  -5.839719361501364E1  -2.665215412060470E1   1.683197669124395E2  -1.749551471576313E1   1.734874863624076E1  
 2.180000000000000E9    -1.458879094357303E1  -3.930830040926835   2.182055463957777E1  -5.937770925372805E1  -2.669788893617939E1   1.676686761327878E2  -1.742008997125059E1   1.554643782316304E1  
 2.182500000000000E9    -1.448756464406776E1  -2.821004390984777   2.181728036435217E1  -5.997417070750964E1  -2.662205071304624E1   1.664308262473980E2  -1.750285672398548E1   1.708112563554725E1  
 2.185000000000000E9    -1.455293199492067E1  -5.400576280236582   2.181207058711196E1  -6.074681178872400E1  -2.664447639490453E1   1.653533458535451E2  -1.753469881413963E1   1.479200456487139E1  
 2.187500000000000E9    -1.456537314183717E1  -6.509521554603038   2.183103198206911E1  -6.128016273016353E1  -2.671009438864816E1   1.646850623218442E2  -1.777966852588717E1   1.419904328186997E1  
 2.190000000000000E9    -1.447928209748939E1  -7.747524878493409   2.181762823860495E1  -6.202368889027736E1  -2.661879480318837E1   1.636251492403779E2  -1.736867555478363E1   1.474236380215840E1  
 2.192500000000000E9    -1.461174503623404E1  -9.246260812542783   2.182921175652798E1  -6.272465462549228E1  -2.670549842457221E1   1.628763594522570E2  -1.728520628249959E1   1.454191437365245E1  
 2.195000000000000E9    -1.464855751420894E1  -9.250698848302298   2.181162252032586E1  -6.342012926214475E1  -2.664574859558687E1   1.625976291267808E2  -1.724036947982100E1   1.299725874878178E1  
 2.197500000000000E9    -1.464090900816301E1  -1.111578750665033E1   2.183416431684195E1  -6.429698891645012E1  -2.666830285433504E1   1.620232555862380E2  -1.719327762517386E1   1.472311889955928E1  
 2.200000000000000E9    -1.445157943903189E1  -1.210892765529417E1   2.180564869625625E1  -6.507588292389012E1  -2.667055731094102E1   1.623601237586173E2  -1.725347876780134E1   1.485772604762879E1  
 2.202500000000000E9    -1.442296121176169E1  -1.361176920399476E1   2.182019582906726E1  -6.576347093173598E1  -2.664869714996025E1   1.615426106815705E2  -1.726695475086991E1   1.582999636275510E1  
 2.205000000000000E9    -1.456128508518216E1  -1.284980320675518E1   2.180472813911332E1  -6.647028922095593E1  -2.661655709714607E1   1.601789717112413E2  -1.735697624331084E1   1.461113501250149E1  
 2.207500000000000E9    -1.444148698078726E1  -1.560052254109207E1   2.180212179974416E1  -6.711910749489127E1  -2.662165948835750E1   1.602938803280408E2  -1.757282203718356E1   1.556049745014028E1  
 2.210000000000000E9    -1.454856896705562E1  -1.539176275396995E1   2.181733802853882E1  -6.784332206940142E1  -2.665505894515039E1   1.590562568190327E2  -1.757557185653777E1   1.554888663397679E1  
 2.212500000000000E9    -1.452691100881734E1  -1.730244973848578E1   2.180836941703763E1  -6.855580224711889E1  -2.668258471883590E1   1.583963429495993E2  -1.783144442573400E1   1.479836822931482E1  
 2.215000000000000E9    -1.458968558739021E1  -1.716839739303153E1   2.181910450407669E1  -6.909895422397510E1  -2.660690237259568E1   1.573610198356199E2  -1.780597085002307E1   1.439773984544967E1  
 2.217500000000000E9    -1.462732483672203E1  -1.895601149094523E1   2.181138086385084E1  -7.001766428277668E1  -2.669521468674432E1   1.563918231965296E2  -1.776193305002402E1   1.338969560338390E1  
 2.220000000000000E9    -1.448473029220448E1  -2.060650042281409E1   2.182028923265490E1  -7.061231566210519E1  -2.674180418971609E1   1.562380499768140E2  -1.765226782778998E1   1.263395949375999E1  
 2.222500000000000E9    -1.459550142626369E1  -2.264778393545425E1   2.181729787967110E1  -7.143658445044159E1  -2.666400897539517E1   1.556205792881474E2  -1.753601301000283E1   1.223417379690407E1  
 2.225000000000000E9    -1.435245272422821E1  -2.088615359690017E1   2.178690610953965E1  -7.214061858978397E1  -2.665212004323442E1   1.554391825874913E2  -1.746500306527683E1   1.330198965037296E1  
 2.227500000000000E9    -1.449284214142854E1  -2.405022882147919E1   2.180337050088249E1  -7.295437874291251E1  -2.661924829281451E1   1.550304801400656E2  -1.738611163586926E1   1.283281104201088E1  
 2.230000000000000E9    -1.443689789156375E1  -2.453418300255745E1   2.181739024225067E1  -7.357855254675742E1  -2.664007764987960E1   1.540111088071418E2  -1.716076523869633E1   1.433290726138988E1  
 2.232500000000000E9    -1.435245522643806E1  -2.625451357726706E1   2.179385175813894E1  -7.443131524305349E1  -2.668085014406468E1   1.533786071917052E2  -1.716133135597030E1   1.457223432859426E1  
 2.235000000000000E9    -1.442056919847598E1  -2.748655490620287E1   2.177767917507873E1  -7.498587026788273E1  -2.665919205237039E1   1.520708306701524E2  -1.746677626848044E1   1.429216506577244E1  
 2.237500000000000E9    -1.441032356067993E1  -2.793584691762610E1   2.177685567421990E1  -7.568443082553590E1  -2.664307535589115E1   1.514150298191347E2  -1.729993502172265E1   1.369028197825804E1  
 2.240000000000000E9    -1.443730682673063E1  -2.935135104138780E1   2.179943364295327E1  -7.637516492133004E1  -2.654587700183972E1   1.505602734430023E2  -1.759972932251071E1   1.356393810509669E1  
 2.242500000000000E9    -1.433982791356475E1  -3.092547483322038E1   2.179479617937474E1  -7.711116391638943E1  -2.662018070488830E1   1.499008415073492E2  -1.780142374900903E1   1.423942980705976E1  
